(0.000000) can0 3A2#0000289403FF0040
(0.000159) can0 39F#3C0500B8000025A4
(0.000421) can0 3A4#0000000000000000
(0.100051) can0 3A2#0000289803FF004C
(0.100248) can0 39F#3C0500B8000026A7
(0.100507) can0 3A4#0000000000000000
(0.200032) can0 3A2#0000289C03FF0048
(0.200215) can0 39F#3C0500B8000027A6
(0.200464) can0 3A4#0000000000000000
(0.300046) can0 3A2#000028A003FF0074
(0.300218) can0 39F#3C0500B8000028A9
(0.300463) can0 3A4#0000000000000000
(0.399939) can0 3A2#000028A403FF0070
(0.400122) can0 39F#3C0500B8000029A8
(0.400376) can0 3A4#0000000000000000
(0.500068) can0 3A2#000028A803FF007C
(0.500209) can0 39F#3C0500B800002AAB
(0.500473) can0 3A4#0000000000000000
(0.600087) can0 3A2#000028AC03FF0078
(0.600243) can0 39F#3C0500B800002BAA
(0.600481) can0 3A4#0000000000000000
(0.699932) can0 3A2#000028B003FF0064
(0.700118) can0 39F#3C0500B800002CAD
(0.700375) can0 3A4#0000000000000000
(0.800018) can0 3A2#000028B403FF0060
(0.800227) can0 39F#3C0500B800002DAC
(0.800470) can0 3A4#0000000000000000
(0.899931) can0 3A2#000028B803FF006C
(0.900146) can0 39F#3C0500B800002EAF
(0.900382) can0 3A4#0000000000000000
(1.000027) can0 3A2#000028BC03FF0068
(1.000236) can0 39F#3C0500B800002FAE
(1.000482) can0 3A4#0000000000000000
(1.100194) can0 3A2#0000288003FF0054
(1.100396) can0 39F#3C0500B8000020A1
(1.100653) can0 3A4#0000000000000000
(1.199933) can0 3A2#0000288403FF0050
(1.200151) can0 39F#3C0500B8000021A0
(1.200390) can0 3A4#0000000000000000
(1.300018) can0 3A2#0000288803FF005C
(1.300200) can0 39F#3C0500B8000022A3
(1.300447) can0 3A4#0000000000000000
(1.399998) can0 3A2#0000288C03FF0058
(1.400211) can0 39F#3C0500B8000023A2
(1.400449) can0 3A4#0000000000000000
(1.499952) can0 3A2#0000289003FF0044
(1.500164) can0 39F#3C0500B8000024A5
(1.500400) can0 3A4#0000000000000000
(1.600067) can0 3A2#0000289403FF0040
(1.600276) can0 39F#3C0500B8000025A4
(1.600534) can0 3A4#0000000000000000
(1.699965) can0 3A2#0000289803FF004C
(1.700211) can0 39F#3C0500B8000026A7
(1.700407) can0 3A4#0000000000000000
(1.800000) can0 3A2#0000289C03FF0048
(1.800214) can0 39F#3C0500B8000027A6
(1.800476) can0 3A4#0000000000000000
(1.900053) can0 3A2#000028A003FF0074
(1.900267) can0 39F#3C0500B8000028A9
(1.900507) can0 3A4#0000000000000000
(1.999952) can0 3A2#000028A403FF0070
(2.000154) can0 39F#3C0500B8000029A8
(2.000407) can0 3A4#0000000000000000
(2.100122) can0 3A2#000028A803FF007C
(2.100317) can0 39F#3C0500B800002AAB
(2.100573) can0 3A4#0000000000000000
(2.200062) can0 3A2#000028AC03FF0078
(2.200260) can0 39F#3C0500B800002BAA
(2.200510) can0 3A4#0000000000000000
(2.299960) can0 3A2#000028B003FF0064
(2.300174) can0 39F#3C0500B800002CAD
(2.300417) can0 3A4#0000000000000000
(2.400040) can0 3A2#000028B403FF0060
(2.400286) can0 39F#3C0500B800002DAC
(2.400488) can0 3A4#0000000000000000
(2.499964) can0 3A2#000028B803FF006C
(2.500175) can0 39F#3C0500B800002EAF
(2.500431) can0 3A4#0000000000000000
(2.600024) can0 3A2#000028BC03FF0068
(2.600237) can0 39F#3C0500B800002FAE
(2.600471) can0 3A4#0000000000000000
(2.700087) can0 3A2#0000288003FF0054
(2.700340) can0 39F#3C0500B8000020A1
(2.700531) can0 3A4#0000000000000000
(2.799974) can0 3A2#0000288403FF0050
(2.800193) can0 39F#3C0500B8000021A0
(2.800438) can0 3A4#0000000000000000
(2.900042) can0 3A2#0000288803FF005C
(2.900254) can0 39F#3C0500B8000022A3
(2.900497) can0 3A4#0000000000000000
(3.000095) can0 3A2#0000288C03FF0058
(3.000303) can0 39F#3C0500B8000023A2
(3.000546) can0 3A4#0000000000000000
(3.100261) can0 3A2#0000289003FF0044
(3.100476) can0 39F#3C0500B8000024A5
(3.100725) can0 3A4#0000000000000000
(3.199987) can0 3A2#0000289403FF0040
(3.200198) can0 39F#3C0500B8000025A4
(3.200448) can0 3A4#0000000000000000
(3.300090) can0 3A2#0000289803FF004C
(3.300292) can0 39F#3C0500B8000026A7
(3.300541) can0 3A4#0000000000000000
(3.399999) can0 3A2#0000289C03FF0048
(3.400196) can0 39F#3C0500B8000027A6
(3.400447) can0 3A4#0000000000000000
(3.500113) can0 3A2#000028A003FF0074
(3.500316) can0 39F#3C0500B8000028A9
(3.500569) can0 3A4#0000000000000000
(3.600149) can0 3A2#000028A403FF0070
(3.600361) can0 39F#3C0500B8000029A8
(3.600600) can0 3A4#0000000000000000
(3.700101) can0 3A2#000028A803FF007C
(3.700305) can0 39F#3C0500B800002AAB
(3.700554) can0 3A4#0000000000000000
(3.800008) can0 3A2#000028AC03FF0078
(3.800223) can0 39F#3C0500B800002BAA
(3.800469) can0 3A4#0000000000000000
(3.900090) can0 3A2#000028B003FF0064
(3.900289) can0 39F#3C0500B800002CAD
(3.900539) can0 3A4#0000000000000000
