(1791112160.905365) can0 297#0001E040FFFF8021
(1791112160.905604) can0 29B#FB967003FD100000
(1791112160.955376) can0 297#0001E040FFFF8120
(1791112160.955612) can0 29B#FB967003FD100000
(1791112160.960044) can0 29C#28FF83FF00FFFFFF
(1791112160.960270) can0 33F#7FFF00FF2803FF00
(1791112160.960560) can0 394#0036000000370100
(1791112160.960817) can0 396#3B6D4E2800454545
(1791112160.961165) can0 39A#0036020097800000
(1791112160.961397) can0 39B#3C3A820000000480
(1791112161.005382) can0 297#0001E040FFFF8223
(1791112161.005610) can0 29B#FB967003FD100000
(1791112161.055369) can0 297#0001E040FFFF8322
(1791112161.055603) can0 29B#FB967003FD100000
(1791112161.060055) can0 29C#28FF83FF00FFFFFF
(1791112161.060281) can0 33F#7FFF00FF2803FF00
(1791112161.060548) can0 394#0036000000370203
(1791112161.060802) can0 396#3B6D4E2800454545
(1791112161.061090) can0 39A#00360200A7400000
(1791112161.061388) can0 39B#3C3A82000000088C
(1791112161.105370) can0 297#0001E040FFFF8425
(1791112161.105619) can0 29B#FB967003FD100000
(1791112161.155400) can0 297#0001E040FFFF8524
(1791112161.155616) can0 29B#FB967003FD100000
(1791112161.160025) can0 29C#28FF83FF00FFFFFF
(1791112161.160275) can0 33F#7FFF00FF2803FF00
(1791112161.160551) can0 394#0036000000370302
(1791112161.160800) can0 396#3B6D4E2800454545
(1791112161.161097) can0 39A#00360200B7000000
(1791112161.161380) can0 39B#3C3A820000000C88
(1791112161.205429) can0 297#0001E040FFFF8627
(1791112161.205618) can0 29B#FB967003FD100000
(1791112161.255357) can0 297#0001E040FFFF8726
(1791112161.255595) can0 29B#FB967003FD100000
(1791112161.259986) can0 29C#28FF83FF00FFFFFF
(1791112161.260258) can0 33F#7FFF00FF2803FF00
(1791112161.260539) can0 394#0036000000370405
(1791112161.260799) can0 396#3B6D4E2800454545
(1791112161.261095) can0 39A#00360200C6C00000
(1791112161.261374) can0 39B#3C3A820000001094
(1791112161.305366) can0 297#0001E040FFFF8829
(1791112161.305602) can0 29B#FB967003FD100000
(1791112161.355352) can0 297#0001E040FFFF8928
(1791112161.355600) can0 29B#FB967003FD100000
(1791112161.359995) can0 29C#28FF83FF00FFFFFF
(1791112161.360250) can0 33F#7FFF00FF2803FF00
(1791112161.360553) can0 394#0036000000370504
(1791112161.360800) can0 396#3B6D4E2800454545
(1791112161.361100) can0 39A#00360200D6800000
(1791112161.361378) can0 39B#3C3A820000001490
(1791112161.405351) can0 297#0001E040FFFF8A2B
(1791112161.405607) can0 29B#FB967003FD100000
(1791112161.455353) can0 297#0001E040FFFF8B2A
(1791112161.455590) can0 29B#FB967003FD100000
(1791112161.460020) can0 29C#28FF83FF00FFFFFF
(1791112161.460268) can0 33F#7FFF00FF2803FF00
(1791112161.460538) can0 394#0036000000370607
(1791112161.460819) can0 396#3B6D4E2800454545
(1791112161.461101) can0 39A#00360200E6400000
(1791112161.461371) can0 39B#3C3A82000000189C
(1791112161.505368) can0 297#0001E040FFFF8C2D
(1791112161.505600) can0 29B#FB967003FD100000
(1791112161.555372) can0 297#0001E040FFFF8D2C
(1791112161.555605) can0 29B#FB967003FD100000
(1791112161.560039) can0 29C#28FF83FF00FFFFFF
(1791112161.560261) can0 33F#7FFF00FF2803FF00
(1791112161.560531) can0 394#0036000000370706
(1791112161.560816) can0 396#3B6D4E2800454545
(1791112161.561104) can0 39A#00360200F6000000
(1791112161.561407) can0 39B#3C3A820000001C98
(1791112161.605374) can0 297#0001E040FFFF8E2F
(1791112161.605622) can0 29B#FB967003FD100000
(1791112161.655363) can0 297#0001E040FFFF8F2E
(1791112161.655608) can0 29B#FB967003FD100000
(1791112161.660010) can0 29C#28FF83FF00FFFFFF
(1791112161.660254) can0 33F#7FFF00FF2803FF00
(1791112161.660525) can0 394#0036000000370809
(1791112161.660805) can0 396#3B6D4E2800454545
(1791112161.661100) can0 39A#0036020005C00000
(1791112161.661386) can0 39B#3C3A8200000020A4
(1791112161.705412) can0 297#0001E040FFFF8021
(1791112161.705615) can0 29B#FB967003FD100000
(1791112161.755444) can0 297#0001E040FFFF8120
(1791112161.755617) can0 29B#FB967003FD100000
(1791112161.760012) can0 29C#28FF83FF00FFFFFF
(1791112161.760259) can0 33F#7FFF00FF2803FF00
(1791112161.760527) can0 394#0036000000370908
(1791112161.760802) can0 396#3B6D4E2800454545
(1791112161.761101) can0 39A#0036020015800000
(1791112161.761395) can0 39B#3C3A8200000024A0
(1791112161.805444) can0 297#0001E040FFFF8223
(1791112161.805606) can0 29B#FB967003FD100000
(1791112161.855356) can0 297#0001E040FFFF8322
(1791112161.855594) can0 29B#FB967003FD100000
(1791112161.859968) can0 29C#28FF83FF00FFFFFF
(1791112161.860268) can0 33F#7FFF00FF2803FF00
(1791112161.860538) can0 394#0036000000370A0B
(1791112161.860812) can0 396#3B6D4E2800454545
(1791112161.861101) can0 39A#0036020025400000
(1791112161.861380) can0 39B#3C3A8200000028AC
(1791112161.905344) can0 297#0001E040FFFF8425
(1791112161.905613) can0 29B#FB967003FD100000
(1791112161.955347) can0 297#0001E040FFFF8524
(1791112161.955608) can0 29B#FB967003FD100000
(1791112161.960010) can0 29C#28FF83FF00FFFFFF
(1791112161.960294) can0 33F#7FFF00FF2803FF00
(1791112161.960531) can0 394#0036000000370B0A
(1791112161.960813) can0 396#3B6D4E2800454545
(1791112161.961121) can0 39A#0036020035000000
(1791112161.961400) can0 39B#3C3A820000002CA8
(1791112162.005376) can0 297#0001E040FFFF8627
(1791112162.005622) can0 29B#FB967003FD100000
(1791112162.055376) can0 297#0001E040FFFF8726
(1791112162.055607) can0 29B#FB967003FD100000
(1791112162.060055) can0 29C#28FF83FF00FFFFFF
(1791112162.060337) can0 33F#7FFF00FF2803FF00
(1791112162.060583) can0 394#0036000000370C0D
(1791112162.060816) can0 396#3B6D4E2800454545
(1791112162.061106) can0 39A#0036020044C00000
(1791112162.061391) can0 39B#3C3A8200000030B4
(1791112162.105371) can0 297#0001E040FFFF8829
(1791112162.105607) can0 29B#FB967003FD100000
(1791112162.155364) can0 297#0001E040FFFF8928
(1791112162.155597) can0 29B#FB967003FD100000
(1791112162.160008) can0 29C#28FF83FF00FFFFFF
(1791112162.160312) can0 33F#7FFF00FF2803FF00
(1791112162.160530) can0 394#0036000000370D0C
(1791112162.160809) can0 396#3B6D4E2800454545
(1791112162.161104) can0 39A#0036020054800000
(1791112162.161371) can0 39B#3C3A8200000034B0
(1791112162.205401) can0 297#0001E040FFFF8A2B
(1791112162.205619) can0 29B#FB967003FD100000
(1791112162.255361) can0 297#0001E040FFFF8B2A
(1791112162.255606) can0 29B#FB967003FD100000
(1791112162.259976) can0 29C#28FF83FF00FFFFFF
(1791112162.260244) can0 33F#7FFF00FF2803FF00
(1791112162.260545) can0 394#0036000000370E0F
(1791112162.260804) can0 396#3B6D4E2800454545
(1791112162.261093) can0 39A#0036020064400000
(1791112162.261380) can0 39B#3C3A8200000038BC
(1791112162.305370) can0 297#0001E040FFFF8C2D
(1791112162.305595) can0 29B#FB967003FD100000
(1791112162.355371) can0 297#0001E040FFFF8D2C
(1791112162.355593) can0 29B#FB967003FD100000
(1791112162.359994) can0 29C#28FF83FF00FFFFFF
(1791112162.360253) can0 33F#7FFF00FF2803FF00
(1791112162.360531) can0 394#0036000000370F0E
(1791112162.360793) can0 396#3B6D4E2800454545
(1791112162.361093) can0 39A#0036020074000000
(1791112162.361377) can0 39B#3C3A820000003CB8
(1791112162.405387) can0 297#0001E040FFFF8E2F
(1791112162.405601) can0 29B#FB967003FD100000
(1791112162.455390) can0 297#0001E040FFFF8F2E
(1791112162.455606) can0 29B#FB967003FD100000
(1791112162.460031) can0 29C#28FF83FF00FFFFFF
(1791112162.460265) can0 33F#7FFF00FF2803FF00
(1791112162.460536) can0 394#0036000000370001
(1791112162.460795) can0 396#3B6D4E2800454545
(1791112162.461085) can0 39A#0036020083C00000
(1791112162.461403) can0 39B#3C3A820000000084
(1791112162.505400) can0 297#0001E040FFFF8021
(1791112162.505588) can0 29B#FB967003FD100000
(1791112162.555416) can0 297#0001E040FFFF8120
(1791112162.555608) can0 29B#FB967003FD100000
(1791112162.560046) can0 29C#28FF83FF00FFFFFF
(1791112162.560259) can0 33F#7FFF00FF2803FF00
(1791112162.560544) can0 394#0036000000370100
(1791112162.560808) can0 396#3B6D4E2800454545
(1791112162.561091) can0 39A#0036020093800000
(1791112162.561367) can0 39B#3C3A820000000480
(1791112162.605430) can0 297#0001E040FFFF8223
(1791112162.605597) can0 29B#FB967003FD100000
(1791112162.655465) can0 297#0001E040FFFF8322
(1791112162.655610) can0 29B#FB967003FD100000
(1791112162.660018) can0 29C#28FF83FF00FFFFFF
(1791112162.660250) can0 33F#7FFF00FF2803FF00
(1791112162.660537) can0 394#0036000000370203
(1791112162.660798) can0 396#3B6D4E2800454545
(1791112162.661096) can0 39A#00360200A3400000
(1791112162.661375) can0 39B#3C3A82000000088C
(1791112162.705403) can0 297#0001E040FFFF8425
(1791112162.705603) can0 29B#FB967003FD100000
(1791112162.755414) can0 297#0001E040FFFF8524
(1791112162.755615) can0 29B#FB967003FD100000
(1791112162.760009) can0 29C#28FF83FF00FFFFFF
(1791112162.760240) can0 33F#7FFF00FF2803FF00
(1791112162.760516) can0 394#0036000000370302
(1791112162.760793) can0 396#3B6D4E2800454545
(1791112162.761073) can0 39A#00360200B3000000
(1791112162.761388) can0 39B#3C3A820000000C88
(1791112162.805339) can0 297#0001E040FFFF8627
(1791112162.805578) can0 29B#FB967003FD100000
(1791112162.855352) can0 297#0001E040FFFF8726
(1791112162.855594) can0 29B#FB967003FD100000
(1791112162.859995) can0 29C#28FF83FF00FFFFFF
(1791112162.860235) can0 33F#7FFF00FF2803FF00
(1791112162.860541) can0 394#0036000000370405
(1791112162.860826) can0 396#3B6D4E2800454545
(1791112162.861107) can0 39A#00360200C2C00000
(1791112162.861408) can0 39B#3C3A820000001094
(1791112162.905361) can0 297#0001E040FFFF8829
(1791112162.905601) can0 29B#FB967003FD100000
(1791112162.955363) can0 297#0001E040FFFF8928
(1791112162.955599) can0 29B#FB967003FD100000
(1791112162.960035) can0 29C#28FF83FF00FFFFFF
(1791112162.960258) can0 33F#7FFF00FF2803FF00
(1791112162.960564) can0 394#0036000000370504
(1791112162.960806) can0 396#3B6D4E2800454545
(1791112162.961099) can0 39A#00360200D2800000
(1791112162.961453) can0 39B#3C3A820000001490
(1791112163.005364) can0 297#0001E040FFFF8A2B
(1791112163.005599) can0 29B#FB967003FD100000
(1791112163.055367) can0 297#0001E040FFFF8B2A
(1791112163.055603) can0 29B#FB967003FD100000
(1791112163.060043) can0 29C#28FF83FF00FFFFFF
(1791112163.060243) can0 33F#7FFF00FF2803FF00
(1791112163.060529) can0 394#0036000000370607
(1791112163.060808) can0 396#3B6D4E2800454545
(1791112163.061078) can0 39A#00360200E2400000
(1791112163.061429) can0 39B#3C3A82000000189C
(1791112163.105366) can0 297#0001E040FFFF8C2D
(1791112163.105589) can0 29B#FB967003FD100000
(1791112163.155382) can0 297#0001E040FFFF8D2C
(1791112163.155605) can0 29B#FB967003FD100000
(1791112163.159984) can0 29C#28FF83FF00FFFFFF
(1791112163.160240) can0 33F#7FFF00FF2803FF00
(1791112163.160536) can0 394#0036000000370706
(1791112163.160785) can0 396#3B6D4E2800454545
(1791112163.161074) can0 39A#00360200F2000000
(1791112163.161351) can0 39B#3C3A820000001C98
(1791112163.205344) can0 297#0001E040FFFF8E2F
(1791112163.205590) can0 29B#FB967003FD100000
(1791112163.255343) can0 297#0001E040FFFF8F2E
(1791112163.255581) can0 29B#FB967003FD100000
(1791112163.260005) can0 29C#28FF83FF00FFFFFF
(1791112163.260237) can0 33F#7FFF00FF2803FF00
(1791112163.260530) can0 394#0036000000370809
(1791112163.260816) can0 396#3B6D4E2800454545
(1791112163.261092) can0 39A#0036020001C00000
(1791112163.261370) can0 39B#3C3A8200000020A4
(1791112163.305352) can0 297#0001E040FFFF8021
(1791112163.305586) can0 29B#FB967003FD100000
(1791112163.355356) can0 297#0001E040FFFF8120
(1791112163.355592) can0 29B#FB967003FD100000
(1791112163.360024) can0 29C#28FF83FF00FFFFFF
(1791112163.360261) can0 33F#7FFF00FF2803FF00
(1791112163.360535) can0 394#0036000000370908
(1791112163.360790) can0 396#3B6D4E2800454545
(1791112163.361109) can0 39A#0036020011800000
(1791112163.361377) can0 39B#3C3A8200000024A0
(1791112163.405373) can0 297#0001E040FFFF8223
(1791112163.405616) can0 29B#FB967003FD100000
(1791112163.455362) can0 297#0001E040FFFF8322
(1791112163.455591) can0 29B#FB967003FD100000
(1791112163.460047) can0 29C#28FF83FF00FFFFFF
(1791112163.460262) can0 33F#7FFF00FF2803FF00
(1791112163.460514) can0 394#0036000000370A0B
(1791112163.460810) can0 396#3B6D4E2800454545
(1791112163.461100) can0 39A#0036020021400000
(1791112163.461382) can0 39B#3C3A8200000028AC
(1791112163.505361) can0 297#0001E040FFFF8425
(1791112163.505588) can0 29B#FB967003FD100000
(1791112163.555425) can0 297#0001E040FFFF8524
(1791112163.555603) can0 29B#FB967003FD100000
(1791112163.560005) can0 29C#28FF83FF00FFFFFF
(1791112163.560244) can0 33F#7FFF00FF2803FF00
(1791112163.560519) can0 394#0036000000370B0A
(1791112163.560782) can0 396#3B6D4E2800454545
(1791112163.561088) can0 39A#0036020031000000
(1791112163.561368) can0 39B#3C3A820000002CA8
(1791112163.605395) can0 297#0001E040FFFF8627
(1791112163.605597) can0 29B#FB967003FD100000
(1791112163.655393) can0 297#0001E040FFFF8726
(1791112163.655588) can0 29B#FB967003FD100000
(1791112163.659969) can0 29C#28FF83FF00FFFFFF
(1791112163.660240) can0 33F#7FFF00FF2803FF00
(1791112163.660517) can0 394#0036000000370C0D
(1791112163.660777) can0 396#3B6D4E2800454545
(1791112163.661077) can0 39A#0036020040C00000
(1791112163.661361) can0 39B#3C3A8200000030B4
(1791112163.705343) can0 297#0001E040FFFF8829
(1791112163.705580) can0 29B#FB967003FD100000
(1791112163.755340) can0 297#0001E040FFFF8928
(1791112163.755586) can0 29B#FB967003FD100000
(1791112163.759970) can0 29C#28FF83FF00FFFFFF
(1791112163.760240) can0 33F#7FFF00FF2803FF00
(1791112163.760529) can0 394#0036000000370D0C
(1791112163.760779) can0 396#3B6D4E2800454545
(1791112163.761092) can0 39A#0036020050800000
(1791112163.761375) can0 39B#3C3A8200000034B0
(1791112163.805345) can0 297#0001E040FFFF8A2B
(1791112163.805577) can0 29B#FB967003FD100000
(1791112163.855349) can0 297#0001E040FFFF8B2A
(1791112163.855582) can0 29B#FB967003FD100000
(1791112163.860018) can0 29C#28FF83FF00FFFFFF
(1791112163.860258) can0 33F#7FFF00FF2803FF00
(1791112163.860559) can0 394#0036000000370E0F
(1791112163.860801) can0 396#3B6D4E2800454545
(1791112163.861078) can0 39A#0036020060400000
(1791112163.861364) can0 39B#3C3A8200000038BC
(1791112163.905348) can0 297#0001E040FFFF8C2D
(1791112163.905588) can0 29B#FB967003FD100000
(1791112163.955351) can0 297#0001E040FFFF8D2C
(1791112163.955577) can0 29B#FB967003FD100000
(1791112163.960077) can0 29C#28FF83FF00FFFFFF
(1791112163.960237) can0 33F#7FFF00FF2803FF00
(1791112163.960564) can0 394#0036000000370F0E
(1791112163.960811) can0 396#3B6D4E2800454545
(1791112163.961097) can0 39A#0036020070000000
(1791112163.961363) can0 39B#3C3A820000003CB8
(1791112164.005361) can0 297#0001E040FFFF8E2F
(1791112164.005585) can0 29B#FB967003FD100000
(1791112164.055396) can0 297#0001E040FFFF8F2E
(1791112164.055601) can0 29B#FB967003FD100000
(1791112164.059994) can0 29C#28FF83FF00FFFFFF
(1791112164.060232) can0 33F#7FFF00FF2803FF00
(1791112164.060556) can0 394#0036000000370001
(1791112164.060780) can0 396#3B6D4E2800454545
(1791112164.061086) can0 39A#003602007FC00000
(1791112164.061366) can0 39B#3C3A820000000084
(1791112164.105384) can0 297#0001E040FFFF8021
(1791112164.105588) can0 29B#FB967003FD100000
(1791112164.155346) can0 297#0001E040FFFF8120
(1791112164.155584) can0 29B#FB967003FD100000
(1791112164.159958) can0 29C#28FF83FF00FFFFFF
(1791112164.160230) can0 33F#7FFF00FF2803FF00
(1791112164.160570) can0 394#0036000000370100
(1791112164.160794) can0 396#3B6D4E2800454545
(1791112164.161080) can0 39A#003602008F800000
(1791112164.161353) can0 39B#3C3A820000000480
(1791112164.205341) can0 297#0001E040FFFF8223
(1791112164.205582) can0 29B#FB967003FD100000
(1791112164.255354) can0 297#0001E040FFFF8322
(1791112164.255586) can0 29B#FB967003FD100000
(1791112164.259983) can0 29C#28FF83FF00FFFFFF
(1791112164.260225) can0 33F#7FFF00FF2803FF00
(1791112164.260503) can0 394#0036000000370203
(1791112164.260782) can0 396#3B6D4E2800454545
(1791112164.261121) can0 39A#003602009F400000
(1791112164.261376) can0 39B#3C3A82000000088C
(1791112164.305348) can0 297#0001E040FFFF8425
(1791112164.305611) can0 29B#FB967003FD100000
(1791112164.355340) can0 297#0001E040FFFF8524
(1791112164.355601) can0 29B#FB967003FD100000
(1791112164.360001) can0 29C#28FF83FF00FFFFFF
(1791112164.360248) can0 33F#7FFF00FF2803FF00
(1791112164.360519) can0 394#0036000000370302
(1791112164.360784) can0 396#3B6D4E2800454545
(1791112164.361084) can0 39A#00360200AF000000
(1791112164.361384) can0 39B#3C3A820000000C88
(1791112164.405337) can0 297#0001E040FFFF8627
(1791112164.405616) can0 29B#FB967003FD100000
(1791112164.455345) can0 297#0001E040FFFF8726
(1791112164.455636) can0 29B#FB967003FD100000
(1791112164.460000) can0 29C#28FF83FF00FFFFFF
(1791112164.460248) can0 33F#7FFF00FF2803FF00
(1791112164.460521) can0 394#0036000000370405
(1791112164.460780) can0 396#3B6D4E2800454545
(1791112164.461087) can0 39A#00360200BEC00000
(1791112164.461367) can0 39B#3C3A820000001094
(1791112164.505342) can0 297#0001E040FFFF8829
(1791112164.505644) can0 29B#FB967003FD100000
(1791112164.555399) can0 297#0001E040FFFF8928
(1791112164.555649) can0 29B#FB967003FD100000
(1791112164.559981) can0 29C#28FF83FF00FFFFFF
(1791112164.560238) can0 33F#7FFF00FF2803FF00
(1791112164.560507) can0 394#0036000000370504
(1791112164.560773) can0 396#3B6D4E2800454545
(1791112164.561065) can0 39A#00360200CE800000
(1791112164.561363) can0 39B#3C3A820000001490
(1791112164.605330) can0 297#0001E040FFFF8A2B
(1791112164.605641) can0 29B#FB967003FD100000
(1791112164.655341) can0 297#0001E040FFFF8B2A
(1791112164.655648) can0 29B#FB967003FD100000
(1791112164.659974) can0 29C#28FF83FF00FFFFFF
(1791112164.660242) can0 33F#7FFF00FF2803FF00
(1791112164.660515) can0 394#0036000000370607
(1791112164.660777) can0 396#3B6D4E2800454545
(1791112164.661079) can0 39A#00360200DE400000
(1791112164.661363) can0 39B#3C3A82000000189C
(1791112164.705338) can0 297#0001E040FFFF8C2D
(1791112164.705578) can0 29B#FB967003FD100000
(1791112164.755353) can0 297#0001E040FFFF8D2C
(1791112164.755606) can0 29B#FB967003FD100000
(1791112164.760015) can0 29C#28FF83FF00FFFFFF
(1791112164.760244) can0 33F#7FFF00FF2803FF00
(1791112164.760520) can0 394#0036000000370706
(1791112164.760783) can0 396#3B6D4E2800454545
(1791112164.761080) can0 39A#00360200EE000000
(1791112164.761363) can0 39B#3C3A820000001C98
(1791112164.805332) can0 297#0001E040FFFF8E2F
(1791112164.805571) can0 29B#FB967003FD100000
(1791112164.855475) can0 297#0001E040FFFF8F2E
(1791112164.855580) can0 29B#FB967003FD100000
(1791112164.860046) can0 29C#28FF83FF00FFFFFF
(1791112164.860245) can0 33F#7FFF00FF2803FF00
(1791112164.860533) can0 394#0036000000370809
(1791112164.860795) can0 396#3B6D4E2800454545
(1791112164.861076) can0 39A#00360200FDC00000
(1791112164.861388) can0 39B#3C3A8200000020A4
(1791112164.905357) can0 297#0001E040FFFF8021
(1791112164.905589) can0 29B#FB967003FD100000
(1791112164.955345) can0 297#0001E040FFFF8120
(1791112164.955587) can0 29B#FB967003FD100000
(1791112164.959995) can0 29C#28FF83FF00FFFFFF
(1791112164.960237) can0 33F#7FFF00FF2803FF00
(1791112164.960515) can0 394#0036000000370908
(1791112164.960781) can0 396#3B6D4E2800454545
(1791112164.961069) can0 39A#003602000D800000
(1791112164.961369) can0 39B#3C3A8200000024A0
(1791112165.005408) can0 297#0001E040FFFF8223
(1791112165.005604) can0 29B#FB967003FD100000
(1791112165.055332) can0 297#0001E040FFFF8322
(1791112165.055578) can0 29B#FB967003FD100000
(1791112165.059953) can0 29C#28FF83FF00FFFFFF
(1791112165.060212) can0 33F#7FFF00FF2803FF00
(1791112165.060508) can0 394#0036000000370A0B
(1791112165.060787) can0 396#3B6D4E2800454545
(1791112165.061066) can0 39A#003602001D400000
(1791112165.061346) can0 39B#3C3A8200000028AC
(1791112165.105341) can0 297#0001E040FFFF8425
(1791112165.105577) can0 29B#FB967003FD100000
(1791112165.155328) can0 297#0001E040FFFF8524
(1791112165.155568) can0 29B#FB967003FD100000
(1791112165.159983) can0 29C#28FF83FF00FFFFFF
(1791112165.160231) can0 33F#7FFF00FF2803FF00
(1791112165.160509) can0 394#0036000000370B0A
(1791112165.160773) can0 396#3B6D4E2800454545
(1791112165.161077) can0 39A#003602002D000000
(1791112165.161355) can0 39B#3C3A820000002CA8
(1791112165.205334) can0 297#0001E040FFFF8627
(1791112165.205563) can0 29B#FB967003FD100000
(1791112165.255321) can0 297#0001E040FFFF8726
(1791112165.255579) can0 29B#FB967003FD100000
(1791112165.260000) can0 29C#28FF83FF00FFFFFF
(1791112165.260240) can0 33F#7FFF00FF2803FF00
(1791112165.260512) can0 394#0036000000370C0D
(1791112165.260789) can0 396#3B6D4E2800454545
(1791112165.261098) can0 39A#003602003CC00000
(1791112165.261368) can0 39B#3C3A8200000030B4
(1791112165.305346) can0 297#0001E040FFFF8829
(1791112165.305576) can0 29B#FB967003FD100000
(1791112165.355350) can0 297#0001E040FFFF8928
(1791112165.355580) can0 29B#FB967003FD100000
(1791112165.360055) can0 29C#28FF83FF00FFFFFF
(1791112165.360250) can0 33F#7FFF00FF2803FF00
(1791112165.360519) can0 394#0036000000370D0C
(1791112165.360775) can0 396#3B6D4E2800454545
(1791112165.361072) can0 39A#003602004C800000
(1791112165.361366) can0 39B#3C3A8200000034B0
(1791112165.405343) can0 297#0001E040FFFF8A2B
(1791112165.405605) can0 29B#FB967003FD100000
(1791112165.455378) can0 297#0001E040FFFF8B2A
(1791112165.455612) can0 29B#FB967003FD100000
(1791112165.459984) can0 29C#28FF83FF00FFFFFF
(1791112165.460223) can0 33F#7FFF00FF2803FF00
(1791112165.460498) can0 394#0036000000370E0F
(1791112165.460783) can0 396#3B6D4E2800454545
(1791112165.461062) can0 39A#003602005C400000
(1791112165.461356) can0 39B#3C3A8200000038BC
(1791112165.505377) can0 297#0001E040FFFF8C2D
(1791112165.505585) can0 29B#FB967003FD100000
(1791112165.555323) can0 297#0001E040FFFF8D2C
(1791112165.555561) can0 29B#FB967003FD100000
(1791112165.559953) can0 29C#28FF83FF00FFFFFF
(1791112165.560230) can0 33F#7FFF00FF2803FF00
(1791112165.560511) can0 394#0036000000370F0E
(1791112165.560778) can0 396#3B6D4E2800454545
(1791112165.561059) can0 39A#003602006C000000
(1791112165.561356) can0 39B#3C3A820000003CB8
(1791112165.605328) can0 297#0001E040FFFF8E2F
(1791112165.605566) can0 29B#FB967003FD100000
(1791112165.655315) can0 297#0001E040FFFF8F2E
(1791112165.655551) can0 29B#FB967003FD100000
(1791112165.659966) can0 29C#28FF83FF00FFFFFF
(1791112165.660227) can0 33F#7FFF00FF2803FF00
(1791112165.660525) can0 394#0036000000370001
(1791112165.660780) can0 396#3B6D4E2800454545
(1791112165.661108) can0 39A#003602007BC00000
(1791112165.661370) can0 39B#3C3A820000000084
(1791112165.705325) can0 297#0001E040FFFF8021
(1791112165.705563) can0 29B#FB967003FD100000
(1791112165.755339) can0 297#0001E040FFFF8120
(1791112165.755568) can0 29B#FB967003FD100000
(1791112165.760010) can0 29C#28FF83FF00FFFFFF
(1791112165.760225) can0 33F#7FFF00FF2803FF00
(1791112165.760523) can0 394#0036000000370100
(1791112165.760797) can0 396#3B6D4E2800454545
(1791112165.761094) can0 39A#003602008B800000
(1791112165.761360) can0 39B#3C3A820000000480
(1791112165.805345) can0 297#0001E040FFFF8223
(1791112165.805567) can0 29B#FB967003FD100000
(1791112165.855357) can0 297#0001E040FFFF8322
(1791112165.855589) can0 29B#FB967003FD100000
(1791112165.859977) can0 29C#28FF83FF00FFFFFF
(1791112165.860211) can0 33F#7FFF00FF2803FF00
(1791112165.860519) can0 394#0036000000370203
(1791112165.860795) can0 396#3B6D4E2800454545
(1791112165.861072) can0 39A#003602009B400000
(1791112165.861347) can0 39B#3C3A82000000088C
(1791112165.900870) can0 33B#6400007B00000000
(1791112165.901068) can0 323#0000000000000000
(1791112165.901328) can0 324#0000002828000000
(1791112165.901575) can0 33D#0000102000180000
(1791112165.901824) can0 3B7#0000000000010100
(1791112165.902071) can0 491#0000000000000000
(1791112165.905353) can0 297#0001E040FFFF8425
(1791112165.905583) can0 29B#FB967003FD100000
(1791112165.955385) can0 297#0001E040FFFF8524
(1791112165.955598) can0 29B#FB967003FD100000
(1791112165.959996) can0 29C#2800000000000000
(1791112165.960246) can0 33F#0000000028000000
(1791112165.960511) can0 394#0036000010370312
(1791112165.960815) can0 396#3B6D4E2800454545
(1791112165.961077) can0 39A#00360200AB000000
(1791112165.961348) can0 39B#3C3A820000000C88
(1791112166.000868) can0 33B#6400006500000000
(1791112166.001058) can0 323#0000000000000000
(1791112166.001274) can0 324#0000002851000000
(1791112166.001520) can0 33D#0000102000180000
(1791112166.001854) can0 3B7#0000000000020200
(1791112166.002034) can0 491#0000000000000000
(1791112166.005334) can0 297#0121E040FFFF8606
(1791112166.005577) can0 29B#BB967002FD100000
(1791112166.055319) can0 297#0121E040FFFF8707
(1791112166.055566) can0 29B#BB967002FD100000
(1791112166.059958) can0 29C#2800000000000000
(1791112166.060234) can0 33F#0000000028000000
(1791112166.060512) can0 394#0036000010370415
(1791112166.060828) can0 396#3B6D4E2800454545
(1791112166.061089) can0 39A#00360200BAC00000
(1791112166.061352) can0 39B#3C3A820000001094
(1791112166.100875) can0 33B#6400005300000000
(1791112166.101042) can0 323#0000000000000000
(1791112166.101283) can0 324#0000002F51000000
(1791112166.101520) can0 33D#0000102000180000
(1791112166.101756) can0 3B7#0000000000030300
(1791112166.102010) can0 491#0000000000000000
(1791112166.105279) can0 297#0121E040FFFF8808
(1791112166.105563) can0 29B#BB967002FD100000
(1791112166.155310) can0 297#0121E040FFFF8909
(1791112166.155571) can0 29B#BB967002FD100000
(1791112166.160026) can0 29C#2800000000000000
(1791112166.160245) can0 33F#0000000028000000
(1791112166.160526) can0 394#0036000010370514
(1791112166.160853) can0 396#3B6D4E2800454545
(1791112166.161075) can0 39A#00360200CA800000
(1791112166.161358) can0 39B#3C3A820000001490
(1791112166.200894) can0 33B#6400004A00000000
(1791112166.201050) can0 323#0000000000000000
(1791112166.201294) can0 324#0000002F4B000000
(1791112166.201539) can0 33D#0000102000180000
(1791112166.201863) can0 3B7#0000000000040400
(1791112166.202027) can0 491#0000000000000000
(1791112166.205280) can0 297#0121E040FFFF8A0A
(1791112166.205565) can0 29B#BB967002FD100000
(1791112166.255315) can0 297#0121E040FFFF8B0B
(1791112166.255592) can0 29B#BB967002FD100000
(1791112166.260029) can0 29C#2800000000000000
(1791112166.260248) can0 33F#0000000028000000
(1791112166.260535) can0 394#0036000010370617
(1791112166.260791) can0 396#3B6D4E2800454545
(1791112166.261095) can0 39A#00360200DA400000
(1791112166.261362) can0 39B#3C3A82000000189C
(1791112166.300909) can0 33B#6400004400000000
(1791112166.301071) can0 323#0000000000000000
(1791112166.301304) can0 324#0000002F4B000000
(1791112166.301546) can0 33D#0000102000180000
(1791112166.301912) can0 3B7#0000000000050500
(1791112166.302052) can0 491#0000000000000000
(1791112166.305330) can0 297#0121E040FFFF8C0C
(1791112166.305562) can0 29B#BB967002FD100000
(1791112166.355331) can0 297#0121E040FFFF8D0D
(1791112166.355586) can0 29B#BB967002FD100000
(1791112166.360008) can0 29C#2800000000000000
(1791112166.360243) can0 33F#0000000028000000
(1791112166.360512) can0 394#0036000010370716
(1791112166.360770) can0 396#3B6D4E2800454545
(1791112166.361069) can0 39A#00360200EA000000
(1791112166.361350) can0 39B#3C3A820000001C98
(1791112166.400847) can0 33B#6400004200000000
(1791112166.401058) can0 323#0000000000001D65
(1791112166.401310) can0 324#000000344B000000
(1791112166.401564) can0 33D#0000102000180000
(1791112166.401782) can0 3B7#0000000000060600
(1791112166.402024) can0 491#0000000000000000
(1791112166.405357) can0 297#0121E040FFFF8E0E
(1791112166.405597) can0 29B#BB967002FD100000
(1791112166.455410) can0 297#0121E040FFFF8F0F
(1791112166.455559) can0 29B#BB967002FD100000
(1791112166.459965) can0 29C#2800000000000000
(1791112166.460229) can0 33F#0000000028000000
(1791112166.460511) can0 394#0036000010370819
(1791112166.460774) can0 396#3B6D4E2800454545
(1791112166.461073) can0 39A#00360200F9C00000
(1791112166.461350) can0 39B#3C3A8200000020A4
(1791112166.500847) can0 33B#6400004100000000
(1791112166.501055) can0 323#0000000000001D65
(1791112166.501297) can0 324#0000003447000000
(1791112166.501537) can0 33D#0000102000180000
(1791112166.501785) can0 3B7#0000000000070700
(1791112166.502038) can0 491#0000000000000000
(1791112166.505333) can0 297#0101E040FFFF8020
(1791112166.505581) can0 29B#BB967002FD100000
(1791112166.555312) can0 297#0101E040FFFF8121
(1791112166.555567) can0 29B#BB967002FD100000
(1791112166.559979) can0 29C#2800000000000000
(1791112166.560245) can0 33F#0000000028000000
(1791112166.560494) can0 394#0036000010370918
(1791112166.560771) can0 396#3B6D4E2800454545
(1791112166.561073) can0 39A#0036020009800000
(1791112166.561361) can0 39B#3C3A8200000024A0
(1791112166.600863) can0 33B#0000004000000000
(1791112166.601064) can0 323#0000000000001D65
(1791112166.601307) can0 324#0000003447000000
(1791112166.601545) can0 33D#0000102000180000
(1791112166.601792) can0 3B7#0000000000080800
(1791112166.602037) can0 491#0000000000000000
(1791112166.605279) can0 297#0101E040FFFF8222
(1791112166.605552) can0 29B#BB967002FD100000
(1791112166.655319) can0 297#0101E040FFFF8323
(1791112166.655569) can0 29B#BB967002FD100000
(1791112166.660008) can0 29C#2800000000000000
(1791112166.660253) can0 33F#0000000028000040
(1791112166.660517) can0 394#0036000010370A1B
(1791112166.660791) can0 396#3B6D4E2800454545
(1791112166.661079) can0 39A#0036020019400000
(1791112166.661395) can0 39B#3C3A8200000028AC
(1791112166.700849) can0 33B#0000003F00000000
(1791112166.701067) can0 323#0000000000001D65
(1791112166.701300) can0 324#0000003847000000
(1791112166.701549) can0 33D#0000102000180000
(1791112166.701790) can0 3B7#0000000000090900
(1791112166.702035) can0 491#0000000000000000
(1791112166.705298) can0 297#0101E040FFFF8424
(1791112166.705563) can0 29B#BB967002FD100000
(1791112166.755338) can0 297#0101E040FFFF8525
(1791112166.755573) can0 29B#BB967002FD100000
(1791112166.760105) can0 29C#2800000000000000
(1791112166.760241) can0 33F#0000000028000040
(1791112166.760509) can0 394#0036000010370B1A
(1791112166.760788) can0 396#3B6D4E2800454545
(1791112166.761095) can0 39A#0036020029000000
(1791112166.761365) can0 39B#3C3A820000002CA8
(1791112166.800888) can0 33B#0000003F00000000
(1791112166.801088) can0 323#0000000000001D65
(1791112166.801347) can0 324#0000003844000000
(1791112166.801585) can0 33D#0000102000180000
(1791112166.801847) can0 3B7#00000000000A0A00
(1791112166.802072) can0 491#0000000000000000
(1791112166.805324) can0 297#0101E040FFFF8626
(1791112166.805563) can0 29B#BB967002FD100000
(1791112166.855397) can0 297#0101E040FFFF8727
(1791112166.855573) can0 29B#BB967002FD100000
(1791112166.859990) can0 29C#2800000000000000
(1791112166.860219) can0 33F#0000000028000040
(1791112166.860491) can0 394#0036000010370C1D
(1791112166.860776) can0 396#3B6D4E2800454545
(1791112166.861066) can0 39A#0036020038C00000
(1791112166.861345) can0 39B#3C3A8200000030B4
(1791112166.900872) can0 33B#0000003F00000000
(1791112166.901075) can0 323#0000000000001D83
(1791112166.901331) can0 324#0000003844000000
(1791112166.901559) can0 33D#0000102000180000
(1791112166.901821) can0 3B7#00004000000B4B00
(1791112166.902094) can0 491#0000000000000000
(1791112166.905367) can0 297#0101E040FFFF8828
(1791112166.905591) can0 29B#BB967002FD100000
(1791112166.955314) can0 297#0101E040FFFF8929
(1791112166.955549) can0 29B#BB967002FD100000
(1791112166.959970) can0 29C#2800000000000000
(1791112166.960234) can0 33F#0000000028000040
(1791112166.960490) can0 394#0036000010370D1C
(1791112166.960772) can0 396#3B6D4E2800454545
(1791112166.961068) can0 39A#0036020048800000
(1791112166.961348) can0 39B#3C3A8200000034B0
(1791112167.000952) can0 33B#0000003F00000000
(1791112167.001104) can0 323#0000000000001D83
(1791112167.001345) can0 324#0000003A44000000
(1791112167.001594) can0 33D#0000102000180000
(1791112167.001947) can0 3B7#00004000000C4C00
(1791112167.002097) can0 491#0000000000000000
(1791112167.005285) can0 297#0101E040FFFF8A2A
(1791112167.005549) can0 29B#BB967002FD100000
(1791112167.055324) can0 297#0101E040FFFF8B2B
(1791112167.055557) can0 29B#BB967002FD100000
(1791112167.059979) can0 29C#2800000000000000
(1791112167.060231) can0 33F#0000000028000040
(1791112167.060499) can0 394#0036000010370E1F
(1791112167.060774) can0 396#3B6D4E2800454545
(1791112167.061055) can0 39A#0036020058400000
(1791112167.061387) can0 39B#3C3A8200000038BC
(1791112167.100889) can0 33B#0000003F00000000
(1791112167.101089) can0 323#0000000000001D83
(1791112167.101323) can0 324#0000003A42000000
(1791112167.101561) can0 33D#0000102000180000
(1791112167.101809) can0 3B7#00004000000D4D00
(1791112167.102061) can0 491#0000000000000000
(1791112167.105275) can0 297#0101E040FFFF8C2C
(1791112167.105561) can0 29B#BB967002FD100000
(1791112167.155436) can0 297#0101E040FFFF8D2D
(1791112167.155560) can0 29B#BB967002FD100000
(1791112167.160036) can0 29C#2800000000000000
(1791112167.160250) can0 33F#0000000028000040
(1791112167.160506) can0 394#0036000010370F1E
(1791112167.160781) can0 396#3B6D4E2800454545
(1791112167.161080) can0 39A#0036020068000000
(1791112167.161363) can0 39B#3C3A820000003CB8
(1791112167.200875) can0 33B#0000003E00000000
(1791112167.201086) can0 323#0000000000001D83
(1791112167.201331) can0 324#0000003A42000000
(1791112167.201577) can0 33D#0000102000180000
(1791112167.201811) can0 3B7#00004000000E4E00
(1791112167.202061) can0 491#0000000000000000
(1791112167.205308) can0 297#0101E040FFFF8E2E
(1791112167.205567) can0 29B#BB967002FD100000
(1791112167.255329) can0 297#0101E040FFFF8F2F
(1791112167.255575) can0 29B#BB967002FD100000
(1791112167.260028) can0 29C#2800000000000000
(1791112167.260219) can0 33F#0000000028000040
(1791112167.260495) can0 394#0036000010370011
(1791112167.260754) can0 396#3B6D4E2800454545
(1791112167.261051) can0 39A#0036020077C00000
(1791112167.261332) can0 39B#3C3A820000000084
(1791112167.300901) can0 33B#0000003E00000000
(1791112167.301096) can0 323#0000000000001D83
(1791112167.301359) can0 324#0000003C42000000
(1791112167.301604) can0 33D#0000102000180000
(1791112167.301895) can0 3B7#00004000000F4F00
(1791112167.302092) can0 491#0000000000000000
(1791112167.305357) can0 297#0101E040FFFF8020
(1791112167.305563) can0 29B#BB967002FD100000
(1791112167.355375) can0 297#0101E040FFFF8121
(1791112167.355563) can0 29B#BB967002FD100000
(1791112167.360029) can0 29C#2800000000000000
(1791112167.360234) can0 33F#0000000028000040
(1791112167.360487) can0 394#0036000010370110
(1791112167.360772) can0 396#3B6D4E2800454545
(1791112167.361071) can0 39A#0036020087800000
(1791112167.361348) can0 39B#3C3A820000000480
(1791112167.400915) can0 33B#0000003E00000000
(1791112167.401122) can0 323#0000000000001FC5
(1791112167.401367) can0 324#0000003C41000000
(1791112167.401593) can0 33D#0000102000180000
(1791112167.401877) can0 3B7#0000400000004000
(1791112167.402156) can0 491#0000000000000000
(1791112167.405321) can0 297#0101E040FFFF8222
(1791112167.405553) can0 29B#BB967002FD100000
(1791112167.455304) can0 297#0101E040FFFF8323
(1791112167.455540) can0 29B#BB967002FD100000
(1791112167.460023) can0 29C#2800000000000000
(1791112167.460215) can0 33F#0000000028000040
(1791112167.460493) can0 394#0036000010370213
(1791112167.460761) can0 396#3B6D4E2800454545
(1791112167.461070) can0 39A#0036020097400000
(1791112167.461333) can0 39B#3C3A82000000088C
(1791112167.500875) can0 33B#0000003E00000000
(1791112167.501080) can0 323#0000000000001FC5
(1791112167.501320) can0 324#0000003C41000000
(1791112167.501567) can0 33D#0000102000180000
(1791112167.501822) can0 3B7#0000400000014100
(1791112167.502080) can0 491#0000000000000000
(1791112167.505279) can0 297#0101E040FFFF8424
(1791112167.505558) can0 29B#BB967002FD100000
(1791112167.555326) can0 297#0101E040FFFF8525
(1791112167.555546) can0 29B#BB967002FD100000
(1791112167.560023) can0 29C#2800000000000000
(1791112167.560254) can0 33F#0000000028000040
(1791112167.560521) can0 394#0036000010370312
(1791112167.560788) can0 396#3B6D4E2800454545
(1791112167.561079) can0 39A#00360200A7000000
(1791112167.561353) can0 39B#3C3A820000000C88
(1791112167.600892) can0 33B#0000003E00000000
(1791112167.601093) can0 323#0000000000001FC5
(1791112167.601332) can0 324#0000003D41000000
(1791112167.601581) can0 33D#0000102000180000
(1791112167.601823) can0 3B7#0000400000024200
(1791112167.602085) can0 491#0000000000000000
(1791112167.605309) can0 297#0101E040FFFF8626
(1791112167.605551) can0 29B#BB967002FD100000
(1791112167.655318) can0 297#0101E040FFFF8727
(1791112167.655564) can0 29B#BB967002FD100000
(1791112167.660025) can0 29C#2800000000000000
(1791112167.660248) can0 33F#0000000028000040
(1791112167.660510) can0 394#0036000010370415
(1791112167.660784) can0 396#3B6D4E2800454545
(1791112167.661083) can0 39A#00360200B6C00000
(1791112167.661352) can0 39B#3C3A820000001094
(1791112167.700916) can0 33B#0000003E00000000
(1791112167.701119) can0 323#0000000000001FC5
(1791112167.701367) can0 324#0000003D40000000
(1791112167.701602) can0 33D#0000102000180000
(1791112167.701937) can0 3B7#0000400000034300
(1791112167.702104) can0 491#0000000000000000
(1791112167.705323) can0 297#0101E040FFFF8828
(1791112167.705568) can0 29B#BB967002FD100000
(1791112167.755336) can0 297#0101E040FFFF8929
(1791112167.755572) can0 29B#BB967002FD100000
(1791112167.759972) can0 29C#2800000000000000
(1791112167.760239) can0 33F#0000000028000040
(1791112167.760506) can0 394#0036000010370514
(1791112167.760755) can0 396#3B6D4E2800454545
(1791112167.761058) can0 39A#00360200C6800000
(1791112167.761332) can0 39B#3C3A820000001490
(1791112167.801155) can0 33B#0000003E00000000
(1791112167.801349) can0 323#0000000000001FC5
(1791112167.801606) can0 324#0000003D40000000
(1791112167.801879) can0 33D#0000102000180000
(1791112167.802077) can0 3B7#0000400000044400
(1791112167.802318) can0 491#0000000000000000
(1791112167.805373) can0 297#0101E040FFFF8A2A
(1791112167.805583) can0 29B#BB967002FD100000
(1791112167.855310) can0 297#0101E040FFFF8B2B
(1791112167.855548) can0 29B#BB967002FD100000
(1791112167.859955) can0 29C#2800000000000000
(1791112167.860215) can0 33F#0000000028000040
(1791112167.860487) can0 394#0036000010370617
(1791112167.860753) can0 396#3B6D4E2800454545
(1791112167.861062) can0 39A#00360200D6400000
(1791112167.861340) can0 39B#3C3A82000000189C
(1791112167.900942) can0 33B#0000003E00000000
(1791112167.901119) can0 323#0000000000000000
(1791112167.901355) can0 324#0000003E40000000
(1791112167.901623) can0 33D#0000102000180000
(1791112167.901892) can0 3B7#0000400000054500
(1791112167.902086) can0 491#0000000000000000
(1791112167.905298) can0 297#0101E040FFFF8C2C
(1791112167.905558) can0 29B#BB967002FD100000
(1791112167.955317) can0 297#0101E040FFFF8D2D
(1791112167.955562) can0 29B#BB967002FD100000
(1791112167.959956) can0 29C#2800000000000000
(1791112167.960223) can0 33F#0000000028000040
(1791112167.960488) can0 394#0036000010370716
(1791112167.960766) can0 396#3B6D4E2800454545
(1791112167.961103) can0 39A#00360200E6000000
(1791112167.961353) can0 39B#3C3A820000001C98
(1791112168.000901) can0 33B#0000003E00000000
(1791112168.001117) can0 323#0000000000000000
(1791112168.001360) can0 324#0000003E40000000
(1791112168.001606) can0 33D#0000102000180000
(1791112168.001883) can0 3B7#0000400000064600
(1791112168.002097) can0 491#0000000000000000
(1791112168.005289) can0 297#0101E040FFFF8E2E
(1791112168.005555) can0 29B#BB967002FD100000
(1791112168.055315) can0 297#0101E040FFFF8F2F
(1791112168.055545) can0 29B#BB967002FD100000
(1791112168.059992) can0 29C#2800000000000000
(1791112168.060236) can0 33F#0000000028000040
(1791112168.060513) can0 394#0036000010370819
(1791112168.060781) can0 396#3B6D4E2800454545
(1791112168.061098) can0 39A#00360200F5C00000
(1791112168.061345) can0 39B#3C3A8200000020A4
(1791112168.100914) can0 33B#0000003E00000000
(1791112168.101116) can0 323#0000000000000000
(1791112168.101354) can0 324#0000003E40000000
(1791112168.101597) can0 33D#0000102000180000
(1791112168.101870) can0 3B7#0000400000074700
(1791112168.102096) can0 491#0000000000000000
(1791112168.105287) can0 297#0101E040FFFF8020
(1791112168.105569) can0 29B#BB967002FD100000
(1791112168.155329) can0 297#0101E040FFFF8121
(1791112168.155570) can0 29B#BB967002FD100000
(1791112168.160052) can0 29C#2800000000000000
(1791112168.160236) can0 33F#0000000028000040
(1791112168.160504) can0 394#0036000010370918
(1791112168.160786) can0 396#3B6D4E2800454545
(1791112168.161113) can0 39A#0036020005800000
(1791112168.161375) can0 39B#3C3A8200000024A0
(1791112168.200919) can0 33B#0000003E00000000
(1791112168.201135) can0 323#0000000000000000
(1791112168.201371) can0 324#0000003E40000000
(1791112168.201614) can0 33D#0000102000180000
(1791112168.201886) can0 3B7#0000400000084800
(1791112168.202114) can0 491#0000000000000000
(1791112168.205323) can0 297#0101E040FFFF8222
(1791112168.205557) can0 29B#BB967002FD100000
(1791112168.255361) can0 297#0101E040FFFF8323
(1791112168.255572) can0 29B#BB967002FD100000
(1791112168.259980) can0 29C#2800000000000000
(1791112168.260224) can0 33F#0000000028000040
(1791112168.260498) can0 394#0036000010370A1B
(1791112168.260757) can0 396#3B6D4E2800454545
(1791112168.261119) can0 39A#0036020015400000
(1791112168.261342) can0 39B#3C3A8200000028AC
(1791112168.300966) can0 33B#0000003E00000000
(1791112168.301182) can0 323#0000000000000000
(1791112168.301413) can0 324#0000003E40000000
(1791112168.301652) can0 33D#0000102000180000
(1791112168.301939) can0 3B7#0000400000094900
(1791112168.302144) can0 491#0000000000000000
(1791112168.305365) can0 297#0101E040FFFF8424
(1791112168.305566) can0 29B#BB967002FD100000
(1791112168.355305) can0 297#0101E040FFFF8525
(1791112168.355545) can0 29B#BB967002FD100000
(1791112168.359920) can0 29C#2800000000000000
(1791112168.360219) can0 33F#0000000028000040
(1791112168.360489) can0 394#0036000010370B1A
(1791112168.360765) can0 396#3B6D4E2800454545
(1791112168.361057) can0 39A#0036020025000000
(1791112168.361337) can0 39B#3C3A820000002CA8
(1791112168.401015) can0 33B#0000003E00000000
(1791112168.401154) can0 323#0000000000001D65
(1791112168.401379) can0 324#0000003E41000000
(1791112168.401634) can0 33D#0000102000180000
(1791112168.401913) can0 3B7#00004000000A4A00
(1791112168.402161) can0 491#0000000000000000
(1791112168.405305) can0 297#0101E040FFFF8626
(1791112168.405559) can0 29B#BB967002FD100000
(1791112168.455309) can0 297#0101E040FFFF8727
(1791112168.455553) can0 29B#BB967002FD100000
(1791112168.459954) can0 29C#2800000000000000
(1791112168.460216) can0 33F#0000000028000040
(1791112168.460492) can0 394#0036000010370C1D
(1791112168.460771) can0 396#3B6D4E2800454545
(1791112168.461083) can0 39A#0036020034C00000
(1791112168.461365) can0 39B#3C3A8200000030B4
(1791112168.500919) can0 33B#0000003E00000000
(1791112168.501159) can0 323#0000000000001D65
(1791112168.501374) can0 324#0000003E41000000
(1791112168.501622) can0 33D#0000102000180000
(1791112168.501878) can0 3B7#00004000000B4B00
(1791112168.502151) can0 491#0000000000000000
(1791112168.505280) can0 297#0101E040FFFF8828
(1791112168.505548) can0 29B#BB967002FD100000
(1791112168.555298) can0 297#0101E040FFFF8929
(1791112168.555563) can0 29B#BB967002FD100000
(1791112168.559986) can0 29C#2800000000000000
(1791112168.560236) can0 33F#0000000028000040
(1791112168.560518) can0 394#0036000010370D1C
(1791112168.560764) can0 396#3B6D4E2800454545
(1791112168.561057) can0 39A#0036020044800000
(1791112168.561344) can0 39B#3C3A8200000034B0
(1791112168.601014) can0 33B#0000003E00000000
(1791112168.601222) can0 323#0000000000001D65
(1791112168.601456) can0 324#0000003E41000000
(1791112168.601698) can0 33D#0000102000180000
(1791112168.601951) can0 3B7#00004000000C4C00
(1791112168.602195) can0 491#0000000000000000
(1791112168.605313) can0 297#0101E040FFFF8A2A
(1791112168.605563) can0 29B#BB967002FD100000
(1791112168.655325) can0 297#0101E040FFFF8B2B
(1791112168.655570) can0 29B#BB967002FD100000
(1791112168.660041) can0 29C#2800000000000000
(1791112168.660236) can0 33F#0000000028000040
(1791112168.660484) can0 394#0036000010370E1F
(1791112168.660768) can0 396#3B6D4E2800454545
(1791112168.661058) can0 39A#0036020054400000
(1791112168.661335) can0 39B#3C3A8200000038BC
(1791112168.700933) can0 33B#0000003E00000000
(1791112168.701177) can0 323#0000000000001D65
(1791112168.701384) can0 324#0000003E41000000
(1791112168.701627) can0 33D#0000102000180000
(1791112168.701887) can0 3B7#00004000000D4D00
(1791112168.702106) can0 491#0000000000000000
(1791112168.705404) can0 297#0101E040FFFF8C2C
(1791112168.705561) can0 29B#BB967002FD100000
(1791112168.755356) can0 297#0101E040FFFF8D2D
(1791112168.755563) can0 29B#BB967002FD100000
(1791112168.759976) can0 29C#2800000000000000
(1791112168.760220) can0 33F#0000000028000040
(1791112168.760479) can0 394#0036000010370F1E
(1791112168.760752) can0 396#3B6D4E2800454545
(1791112168.761059) can0 39A#0036020064000000
(1791112168.761334) can0 39B#3C3A820000003CB8
(1791112168.801000) can0 33B#0000003E00000000
(1791112168.801204) can0 323#0000000000001D65
(1791112168.801437) can0 324#0000003F41000000
(1791112168.801674) can0 33D#0000102000180000
(1791112168.801925) can0 3B7#00004000000E4E00
(1791112168.802205) can0 491#0000000000000000
(1791112168.805363) can0 297#0101E040FFFF8E2E
(1791112168.805581) can0 29B#BB967002FD100000
(1791112168.855304) can0 297#0101E040FFFF8F2F
(1791112168.855543) can0 29B#BB967002FD100000
(1791112168.859959) can0 29C#2800000000000000
(1791112168.860214) can0 33F#0000000028000040
(1791112168.860475) can0 394#0036000010370011
(1791112168.860765) can0 396#3B6D4E2800454545
(1791112168.861063) can0 39A#0036020073C00000
(1791112168.861348) can0 39B#3C3A820000000084
(1791112168.900970) can0 33B#0000003E00000000
(1791112168.901143) can0 323#0000000000001FAD
(1791112168.901394) can0 324#0000003F41000000
(1791112168.901633) can0 33D#0000102000280000
(1791112168.901892) can0 3B7#00004000000F4F00
(1791112168.902123) can0 491#0000000000000000
(1791112168.905257) can0 297#0101E040FFFF8020
(1791112168.905532) can0 29B#BB967002FD100000
(1791112168.955298) can0 297#0101E040FFFF8121
(1791112168.955536) can0 29B#BB967002FD100000
(1791112168.959995) can0 29C#2800000000000000
(1791112168.960246) can0 33F#0000000028000040
(1791112168.960498) can0 394#0036000010370110
(1791112168.960779) can0 396#3B6D4E2800454545
(1791112168.961098) can0 39A#0036020083800000
(1791112168.961368) can0 39B#3C3A820000000480
(1791112169.001004) can0 33B#0000003E00000000
(1791112169.001215) can0 323#0000000000001FAD
(1791112169.001439) can0 324#0000003F41000000
(1791112169.001689) can0 33D#0000102000280000
(1791112169.001954) can0 3B7#0000400000004000
(1791112169.002211) can0 491#0000000000000000
(1791112169.005261) can0 297#0101E040FFFF8222
(1791112169.005541) can0 29B#BB967002FD100000
(1791112169.055306) can0 297#0101E040FFFF8323
(1791112169.055555) can0 29B#BB967002FD100000
(1791112169.060006) can0 29C#2800000000000000
(1791112169.060240) can0 33F#0000000028000040
(1791112169.060509) can0 394#0036000010370213
(1791112169.060791) can0 396#3B6D4E2800454545
(1791112169.061058) can0 39A#0036020093400000
(1791112169.061361) can0 39B#3C3A82000000088C
(1791112169.100936) can0 33B#0000003E00000000
(1791112169.101141) can0 323#0000000000001FAD
(1791112169.101382) can0 324#0000003F41000000
(1791112169.101630) can0 33D#0000102000280000
(1791112169.101874) can0 3B7#0000400000014100
(1791112169.102141) can0 491#0000000000000000
(1791112169.105332) can0 297#0101E040FFFF8424
(1791112169.105559) can0 29B#BB967002FD100000
(1791112169.155308) can0 297#0101E040FFFF8525
(1791112169.155546) can0 29B#BB967002FD100000
(1791112169.159972) can0 29C#2800000000000000
(1791112169.160238) can0 33F#0000000028000040
(1791112169.160491) can0 394#0036000010370312
(1791112169.160745) can0 396#3B6D4E2800454545
(1791112169.161045) can0 39A#00360200A3000000
(1791112169.161332) can0 39B#3C3A820000000C88
(1791112169.200943) can0 33B#0000003E00000000
(1791112169.201149) can0 323#0000000000001FAD
(1791112169.201397) can0 324#0000003F41000000
(1791112169.201664) can0 33D#0000102000280000
(1791112169.201918) can0 3B7#0000400000024200
(1791112169.202130) can0 491#0000000000000000
(1791112169.205346) can0 297#0101E040FFFF8626
(1791112169.205562) can0 29B#BB967002FD100000
(1791112169.255320) can0 297#0101E040FFFF8727
(1791112169.255538) can0 29B#BB967002FD100000
(1791112169.259928) can0 29C#2800000000000000
(1791112169.260256) can0 33F#0000000028000040
(1791112169.260489) can0 394#0036000010370415
(1791112169.260753) can0 396#3B6D4E2800454545
(1791112169.261041) can0 39A#00360200B2C00000
(1791112169.261327) can0 39B#3C3A820000001094
(1791112169.300982) can0 33B#0000003E00000000
(1791112169.301203) can0 323#0000000000001FAD
(1791112169.301429) can0 324#0000003F41000000
(1791112169.301716) can0 33D#0000102000280000
(1791112169.301930) can0 3B7#0000400000034300
(1791112169.302188) can0 491#0000000000000000
(1791112169.305307) can0 297#0101E040FFFF8828
(1791112169.305537) can0 29B#BB967002FD100000
(1791112169.355303) can0 297#0101E040FFFF8929
(1791112169.355535) can0 29B#BB967002FD100000
(1791112169.359952) can0 29C#2800000000000000
(1791112169.360262) can0 33F#0000000028000040
(1791112169.360488) can0 394#0036000010370514
(1791112169.360750) can0 396#3B6D4E2800454545
(1791112169.361046) can0 39A#00360200C2800000
(1791112169.361349) can0 39B#3C3A820000001490
(1791112169.400973) can0 33B#0000003E00000000
(1791112169.401178) can0 323#0000000000001FC5
(1791112169.401420) can0 324#0000003F41000000
(1791112169.401659) can0 33D#0000102000280000
(1791112169.401915) can0 3B7#0000400000044400
(1791112169.402152) can0 491#0000000000000000
(1791112169.405278) can0 297#0101E040FFFF8A2A
(1791112169.405543) can0 29B#BB967002FD100000
(1791112169.455317) can0 297#0101E040FFFF8B2B
(1791112169.455553) can0 29B#BB967002FD100000
(1791112169.459987) can0 29C#2800000000000000
(1791112169.460224) can0 33F#0000000028000040
(1791112169.460494) can0 394#0036000010370617
(1791112169.460770) can0 396#3B6D4E2800454545
(1791112169.461045) can0 39A#00360200D2400000
(1791112169.461340) can0 39B#3C3A82000000189C
(1791112169.500965) can0 33B#0000003E00000000
(1791112169.501138) can0 323#0000000000001FC5
(1791112169.501404) can0 324#0000003F41000000
(1791112169.501656) can0 33D#0000102000280000
(1791112169.501887) can0 3B7#0000400000054500
(1791112169.502140) can0 491#0000000000000000
(1791112169.505292) can0 297#0101E040FFFF8C2C
(1791112169.505533) can0 29B#BB967002FD100000
(1791112169.555353) can0 297#0101E040FFFF8D2D
(1791112169.555557) can0 29B#BB967002FD100000
(1791112169.560038) can0 29C#2800000000000000
(1791112169.560240) can0 33F#0000000028000040
(1791112169.560503) can0 394#0036000010370716
(1791112169.560777) can0 396#3B6D4E2800454545
(1791112169.561062) can0 39A#00360200E2000000
(1791112169.561340) can0 39B#3C3A820000001C98
(1791112169.600955) can0 33B#0000003E00000000
(1791112169.601177) can0 323#0000000000001FC5
(1791112169.601410) can0 324#0000003F41000000
(1791112169.601646) can0 33D#0000102000280000
(1791112169.601897) can0 3B7#0000400000064600
(1791112169.602157) can0 491#0000000000000000
(1791112169.605358) can0 297#0101E040FFFF8E2E
(1791112169.605564) can0 29B#BB967002FD100000
(1791112169.655360) can0 297#0101E040FFFF8F2F
(1791112169.655603) can0 29B#BB967002FD100000
(1791112169.659945) can0 29C#2800000000000000
(1791112169.660207) can0 33F#0000000028000040
(1791112169.660479) can0 394#0036000010370819
(1791112169.660737) can0 396#3B6D4E2800454545
(1791112169.661050) can0 39A#00360200F1C00000
(1791112169.661331) can0 39B#3C3A8200000020A4
(1791112169.701021) can0 33B#0000003E00000000
(1791112169.701234) can0 323#0000000000001FC5
(1791112169.701548) can0 324#0000003F41000000
(1791112169.701744) can0 33D#0000102000280000
(1791112169.702133) can0 3B7#0000400000074700
(1791112169.702352) can0 491#0000000000000000
(1791112169.705380) can0 297#0101E040FFFF8020
(1791112169.705548) can0 29B#BB967002FD100000
(1791112169.755353) can0 297#0101E040FFFF8121
(1791112169.755537) can0 29B#BB967002FD100000
(1791112169.759932) can0 29C#2800000000000000
(1791112169.760200) can0 33F#0000000028000040
(1791112169.760480) can0 394#0036000010370918
(1791112169.760746) can0 396#3B6D4E2800454545
(1791112169.761040) can0 39A#0036020001800000
(1791112169.761342) can0 39B#3C3A8200000024A0
(1791112169.801241) can0 33B#0000003E00000000
(1791112169.801409) can0 323#0000000000001FC5
(1791112169.801660) can0 324#0000003F41000000
(1791112169.801949) can0 33D#0000102000280000
(1791112169.802140) can0 3B7#0000400000084800
(1791112169.802401) can0 491#0000000000000000
(1791112169.805268) can0 297#0101E040FFFF8222
(1791112169.805542) can0 29B#BB967002FD100000
(1791112169.855298) can0 297#0101E040FFFF8323
(1791112169.855534) can0 29B#BB967002FD100000
(1791112169.859959) can0 29C#2800000000000000
(1791112169.860217) can0 33F#0000000028000040
(1791112169.860484) can0 394#0036000010370A1B
(1791112169.860767) can0 396#3B6D4E2800454545
(1791112169.861064) can0 39A#0036020011400000
(1791112169.861350) can0 39B#3C3A8200000028AC
(1791112169.900993) can0 33B#0000003E00000000
(1791112169.901188) can0 323#0000000000000000
(1791112169.901432) can0 324#0000003F41000000
(1791112169.901682) can0 33D#0000102000280000
(1791112169.901935) can0 3B7#0000400000094900
(1791112169.902161) can0 491#0000000000000000
(1791112169.905275) can0 297#0101E040FFFF8424
(1791112169.905531) can0 29B#BB967002FD100000
(1791112169.955295) can0 297#0101E040FFFF8525
(1791112169.955538) can0 29B#BB967002FD100000
(1791112169.959981) can0 29C#2800000000000000
(1791112169.960233) can0 33F#0000000028000040
(1791112169.960470) can0 394#0036000010370B1A
(1791112169.960774) can0 396#3B6D4E2800454545
(1791112169.961052) can0 39A#0036020021000000
(1791112169.961381) can0 39B#3C3A820000002CA8
(1791112170.000973) can0 33B#0000003E00000000
(1791112170.001166) can0 323#0000000000000000
(1791112170.001413) can0 324#0000003F41000000
(1791112170.001657) can0 33D#0000102000280000
(1791112170.001905) can0 3B7#00004000000A4A00
(1791112170.002165) can0 491#0000000000000000
(1791112170.005281) can0 297#0101E040FFFF8626
(1791112170.005545) can0 29B#BB967002FD100000
(1791112170.055310) can0 297#0101E040FFFF8727
(1791112170.055553) can0 29B#BB967002FD100000
(1791112170.060031) can0 29C#2800000000000000
(1791112170.060224) can0 33F#0000000028000040
(1791112170.060492) can0 394#0036000010370C1D
(1791112170.060743) can0 396#3B6D4E2800454545
(1791112170.061042) can0 39A#0036020030C00000
(1791112170.061357) can0 39B#3C3A8200000030B4
(1791112170.100984) can0 33B#0000003E00000000
(1791112170.101179) can0 323#0000000000000000
(1791112170.101435) can0 324#0000003F41000000
(1791112170.101685) can0 33D#0000102000280000
(1791112170.101919) can0 3B7#00004000000B4B00
(1791112170.102163) can0 491#0000000000000000
(1791112170.105312) can0 297#0101E040FFFF8828
(1791112170.105549) can0 29B#BB967002FD100000
(1791112170.155333) can0 297#0101E040FFFF8929
(1791112170.155544) can0 29B#BB967002FD100000
(1791112170.159956) can0 29C#2800000000000000
(1791112170.160217) can0 33F#0000000028000040
(1791112170.160464) can0 394#0036000010370D1C
(1791112170.160743) can0 396#3B6D4E2800454545
(1791112170.161043) can0 39A#0036020040800000
(1791112170.161366) can0 39B#3C3A8200000034B0
(1791112170.200984) can0 33B#0000003E00000000
(1791112170.201188) can0 323#0000000000000000
(1791112170.201426) can0 324#0000003F41000000
(1791112170.201693) can0 33D#0000102000280000
(1791112170.201940) can0 3B7#00004000000C4C00
(1791112170.202180) can0 491#0000000000000000
(1791112170.205289) can0 297#0101E040FFFF8A2A
(1791112170.205527) can0 29B#BB967002FD100000
(1791112170.255392) can0 297#0101E040FFFF8B2B
(1791112170.255530) can0 29B#BB967002FD100000
(1791112170.259929) can0 29C#2800000000000000
(1791112170.260202) can0 33F#0000000028000040
(1791112170.260483) can0 394#0036000010370E1F
(1791112170.260760) can0 396#3B6D4E2800454545
(1791112170.261053) can0 39A#0036020050400000
(1791112170.261387) can0 39B#3C3A8200000038BC
(1791112170.301101) can0 33B#0000003E00000000
(1791112170.301255) can0 323#0000000000000000
(1791112170.301519) can0 324#0000003F41000000
(1791112170.301745) can0 33D#0000102000280000
(1791112170.301969) can0 3B7#00004000000D4D00
(1791112170.302236) can0 491#0000000000000000
(1791112170.305268) can0 297#0101E040FFFF8C2C
(1791112170.305541) can0 29B#BB967002FD100000
(1791112170.355289) can0 297#0101E040FFFF8D2D
(1791112170.355533) can0 29B#BB967002FD100000
(1791112170.360010) can0 29C#2800000000000000
(1791112170.360227) can0 33F#0000000028000040
(1791112170.360478) can0 394#0036000010370F1E
(1791112170.360767) can0 396#3B6D4E2800454545
(1791112170.361060) can0 39A#0036020060000000
(1791112170.361332) can0 39B#3C3A820000003CB8
(1791112170.401000) can0 33B#0000003E00000000
(1791112170.401196) can0 323#0000000000001D65
(1791112170.401439) can0 324#0000003F41000000
(1791112170.401688) can0 33D#0000102000280000
(1791112170.401935) can0 3B7#00004000000E4E00
(1791112170.402172) can0 491#0000000000000000
(1791112170.405255) can0 297#0101E040FFFF8E2E
(1791112170.405562) can0 29B#BB967002FD100000
(1791112170.455315) can0 297#0101E040FFFF8F2F
(1791112170.455548) can0 29B#BB967002FD100000
(1791112170.459967) can0 29C#2800000000000000
(1791112170.460207) can0 33F#0000000028000040
(1791112170.460483) can0 394#0036000010370011
(1791112170.460755) can0 396#3B6D4E2800454545
(1791112170.461052) can0 39A#003602006FC00000
(1791112170.461353) can0 39B#3C3A820000000084
(1791112170.500993) can0 33B#0000003E00000000
(1791112170.501187) can0 323#0000000000001D65
(1791112170.501435) can0 324#0000003F42000000
(1791112170.501671) can0 33D#0000102000280000
(1791112170.501929) can0 3B7#00004000000F4F00
(1791112170.502192) can0 491#0000000000000000
(1791112170.505320) can0 297#0101E040FFFF8020
(1791112170.505556) can0 29B#BB967002FD100000
(1791112170.555309) can0 297#0101E040FFFF8121
(1791112170.555537) can0 29B#BB967002FD100000
(1791112170.559965) can0 29C#2800000000000000
(1791112170.560221) can0 33F#0000000028000040
(1791112170.560472) can0 394#0036000010370110
(1791112170.560750) can0 396#3B6D4E2800454545
(1791112170.561049) can0 39A#003602007F800000
(1791112170.561319) can0 39B#3C3A820000000480
(1791112170.601002) can0 33B#0000003E00000000
(1791112170.601204) can0 323#0000000000001D65
(1791112170.601466) can0 324#0000003F42000000
(1791112170.601691) can0 33D#0000102000280000
(1791112170.601954) can0 3B7#0000400000004000
(1791112170.602194) can0 491#0000000000000000
(1791112170.605331) can0 297#0101E040FFFF8222
(1791112170.605563) can0 29B#BB967002FD100000
(1791112170.655362) can0 297#0101E040FFFF8323
(1791112170.655543) can0 29B#BB967002FD100000
(1791112170.659938) can0 29C#2800000000000000
(1791112170.660205) can0 33F#0000000028000040
(1791112170.660490) can0 394#0036000010370213
(1791112170.660737) can0 396#3B6D4E2800454545
(1791112170.661044) can0 39A#003602008F400000
(1791112170.661312) can0 39B#3C3A82000000088C
(1791112170.701005) can0 33B#0000003E00000000
(1791112170.701208) can0 323#0000000000001D65
(1791112170.701456) can0 324#0000003F42000000
(1791112170.701714) can0 33D#0000102000280000
(1791112170.701949) can0 3B7#0000400000014100
(1791112170.702209) can0 491#0000000000000000
(1791112170.705292) can0 297#0101E040FFFF8424
(1791112170.705539) can0 29B#BB967002FD100000
(1791112170.755325) can0 297#0101E040FFFF8525
(1791112170.755551) can0 29B#BB967002FD100000
(1791112170.759972) can0 29C#2800000000000000
(1791112170.760220) can0 33F#0000000028000040
(1791112170.760478) can0 394#0036000010370312
(1791112170.760736) can0 396#3B6D4E2800454545
(1791112170.761059) can0 39A#003602009F000000
(1791112170.761341) can0 39B#3C3A820000000C88
(1791112170.801112) can0 33B#0000003E00000000
(1791112170.801313) can0 323#0000000000001D65
(1791112170.801557) can0 324#0000003F42000000
(1791112170.801808) can0 33D#0000102000280000
(1791112170.802057) can0 3B7#0000400000024200
(1791112170.802306) can0 491#0000000000000000
(1791112170.805254) can0 297#0101E040FFFF8626
(1791112170.805536) can0 29B#BB967002FD100000
(1791112170.855284) can0 297#0101E040FFFF8727
(1791112170.855533) can0 29B#BB967002FD100000
(1791112170.859985) can0 29C#2800000000000000
(1791112170.860237) can0 33F#0000000028000040
(1791112170.860492) can0 394#0036000010370415
(1791112170.860744) can0 396#3B6D4E2800454545
(1791112170.861043) can0 39A#00360200AEC00000
(1791112170.861321) can0 39B#3C3A820000001094
(1791112170.901021) can0 33B#0000003E00000000
(1791112170.901219) can0 323#0000000000001FAD
(1791112170.901466) can0 324#0000003F42000000
(1791112170.901696) can0 33D#0000102000280000
(1791112170.901936) can0 3B7#0000400000034300
(1791112170.902186) can0 491#0000000000000000
(1791112170.905249) can0 297#0101E040FFFF8828
(1791112170.905531) can0 29B#BB967002FD100000
(1791112170.955313) can0 297#0101E040FFFF8929
(1791112170.955556) can0 29B#BB967002FD100000
(1791112170.960019) can0 29C#2800000000000000
(1791112170.960234) can0 33F#0000000028000040
(1791112170.960487) can0 394#0036000010370514
(1791112170.960755) can0 396#3B6D4E2800454545
(1791112170.961050) can0 39A#00360200BE800000
(1791112170.961332) can0 39B#3C3A820000001490
(1791112171.001076) can0 33B#0000003E00000000
(1791112171.001281) can0 323#0000000000001FAD
(1791112171.001515) can0 324#0000003F42000000
(1791112171.001756) can0 33D#0000102000280000
(1791112171.002006) can0 3B7#0000400000044400
(1791112171.002248) can0 491#0000000000000000
(1791112171.005300) can0 297#0101E040FFFF8A2A
(1791112171.005533) can0 29B#BB967002FD100000
(1791112171.055288) can0 297#0101E040FFFF8B2B
(1791112171.055534) can0 29B#BB967002FD100000
(1791112171.059957) can0 29C#2800000000000000
(1791112171.060195) can0 33F#0000000028000040
(1791112171.060489) can0 394#0036000010370617
(1791112171.060740) can0 396#3B6D4E2800454545
(1791112171.061029) can0 39A#00360200CE400000
(1791112171.061315) can0 39B#3C3A82000000189C
(1791112171.101036) can0 33B#0000003E00000000
(1791112171.101250) can0 323#0000000000001FAD
(1791112171.101528) can0 324#0000003F42000000
(1791112171.101741) can0 33D#0000102000280000
(1791112171.101968) can0 3B7#0000400000054500
(1791112171.102230) can0 491#0000000000000000
(1791112171.105357) can0 297#0101E040FFFF8C2C
(1791112171.105549) can0 29B#BB967002FD100000
(1791112171.155291) can0 297#0101E040FFFF8D2D
(1791112171.155531) can0 29B#BB967002FD100000
(1791112171.159928) can0 29C#2800000000000000
(1791112171.160196) can0 33F#0000000028000040
(1791112171.160501) can0 394#0036000010370716
(1791112171.160738) can0 396#3B6D4E2800454545
(1791112171.161034) can0 39A#00360200DE000000
(1791112171.161313) can0 39B#3C3A820000001C98
(1791112171.201073) can0 33B#0000003E00000000
(1791112171.201248) can0 323#0000000000001FAD
(1791112171.201526) can0 324#0000003F42000000
(1791112171.201721) can0 33D#0000102000280000
(1791112171.201983) can0 3B7#0000400000064600
(1791112171.202207) can0 491#0000000000000000
(1791112171.205260) can0 297#0101E040FFFF8E2E
(1791112171.205524) can0 29B#BB967002FD100000
(1791112171.255311) can0 297#0101E040FFFF8F2F
(1791112171.255517) can0 29B#BB967002FD100000
(1791112171.259949) can0 29C#2800000000000000
(1791112171.260224) can0 33F#0000000028000040
(1791112171.260524) can0 394#0036000010370819
(1791112171.260742) can0 396#3B6D4E2800454545
(1791112171.261047) can0 39A#00360200EDC00000
(1791112171.261359) can0 39B#3C3A8200000020A4
(1791112171.301075) can0 33B#0000003E00000000
(1791112171.301283) can0 323#0000000000001FAD
(1791112171.301524) can0 324#0000003F42000000
(1791112171.301755) can0 33D#0000102000280000
(1791112171.301996) can0 3B7#0000400000074700
(1791112171.302256) can0 491#0000000000000000
(1791112171.305258) can0 297#0101E040FFFF8020
(1791112171.305534) can0 29B#BB967002FD100000
(1791112171.355299) can0 297#0101E040FFFF8121
(1791112171.355539) can0 29B#BB967002FD100000
(1791112171.359965) can0 29C#2800000000000000
(1791112171.360210) can0 33F#0000000028000040
(1791112171.360551) can0 394#0036000010370918
(1791112171.360762) can0 396#3B6D4E2800454545
(1791112171.361050) can0 39A#00360200FD800000
(1791112171.361327) can0 39B#3C3A8200000024A0
(1791112171.401030) can0 33B#0000003E00000000
(1791112171.401233) can0 323#0000000000001FC5
(1791112171.401540) can0 324#0000003F42000000
(1791112171.401710) can0 33D#0000102000280000
(1791112171.401959) can0 3B7#0000400000084800
(1791112171.402213) can0 491#0000000000000000
(1791112171.405298) can0 297#0101E040FFFF8222
(1791112171.405547) can0 29B#BB967002FD100000
(1791112171.455292) can0 297#0101E040FFFF8323
(1791112171.455557) can0 29B#BB967002FD100000
(1791112171.459997) can0 29C#2800000000000000
(1791112171.460214) can0 33F#0000000028000040
(1791112171.460458) can0 394#0036000010370A1B
(1791112171.460736) can0 396#3B6D4E2800454545
(1791112171.461043) can0 39A#003602000D400000
(1791112171.461313) can0 39B#3C3A8200000028AC
(1791112171.501035) can0 33B#0000003E00000000
(1791112171.501234) can0 323#0000000000001FC5
(1791112171.501487) can0 324#0000003F42000000
(1791112171.501737) can0 33D#0000102000280000
(1791112171.501985) can0 3B7#0000400000094900
(1791112171.502227) can0 491#0000000000000000
(1791112171.505306) can0 297#0101E040FFFF8424
(1791112171.505561) can0 29B#BB967002FD100000
(1791112171.555359) can0 297#0101E040FFFF8525
(1791112171.555579) can0 29B#BB967002FD100000
(1791112171.559942) can0 29C#2800000000000000
(1791112171.560191) can0 33F#0000000028000040
(1791112171.560469) can0 394#0036000010370B1A
(1791112171.560728) can0 396#3B6D4E2800454545
(1791112171.561025) can0 39A#003602001D000000
(1791112171.561324) can0 39B#3C3A820000002CA8
(1791112171.601122) can0 33B#0000003E00000000
(1791112171.601333) can0 323#0000000000001FC5
(1791112171.601691) can0 324#0000003F42000000
(1791112171.601804) can0 33D#0000102000280000
(1791112171.602146) can0 3B7#00004000000A4A00
(1791112171.602293) can0 491#0000000000000000
(1791112171.605299) can0 297#0101E040FFFF8626
(1791112171.605563) can0 29B#BB967002FD100000
(1791112171.655302) can0 297#0101E040FFFF8727
(1791112171.655573) can0 29B#BB967002FD100000
(1791112171.659920) can0 29C#2800000000000000
(1791112171.660194) can0 33F#0000000028000040
(1791112171.660463) can0 394#0036000010370C1D
(1791112171.660743) can0 396#3B6D4E2800454545
(1791112171.661050) can0 39A#003602002CC00000
(1791112171.661332) can0 39B#3C3A8200000030B4
(1791112171.701088) can0 33B#0000003E00000000
(1791112171.701255) can0 323#0000000000001FC5
(1791112171.701498) can0 324#0000003F42000000
(1791112171.701734) can0 33D#0000102000280000
(1791112171.701986) can0 3B7#00004000000B4B00
(1791112171.702216) can0 491#0000000000000000
(1791112171.705253) can0 297#0101E040FFFF8828
(1791112171.705575) can0 29B#BB967002FD100000
(1791112171.755273) can0 297#0101E040FFFF8929
(1791112171.755580) can0 29B#BB967002FD100000
(1791112171.759981) can0 29C#2800000000000000
(1791112171.760214) can0 33F#0000000028000040
(1791112171.760474) can0 394#0036000010370D1C
(1791112171.760744) can0 396#3B6D4E2800454545
(1791112171.761034) can0 39A#003602003C800000
(1791112171.761318) can0 39B#3C3A8200000034B0
(1791112171.801238) can0 33B#0000003E00000000
(1791112171.801442) can0 323#0000000000001FC5
(1791112171.801688) can0 324#0000003F42000000
(1791112171.801936) can0 33D#0000102000280000
(1791112171.802165) can0 3B7#00004000000C4C00
(1791112171.802436) can0 491#0000000000000000
(1791112171.805236) can0 297#0101E040FFFF8A2A
(1791112171.805513) can0 29B#BB967002FD100000
(1791112171.855288) can0 297#0101E040FFFF8B2B
(1791112171.855530) can0 29B#BB967002FD100000
(1791112171.860007) can0 29C#2800000000000000
(1791112171.860207) can0 33F#0000000028000040
(1791112171.860513) can0 394#0036000010370E1F
(1791112171.860768) can0 396#3B6D4E2800454545
(1791112171.861050) can0 39A#003602004C400000
(1791112171.861327) can0 39B#3C3A8200000038BC
(1791112171.901045) can0 33B#0000003E00000000
(1791112171.901251) can0 323#0000000000000000
(1791112171.901497) can0 324#0000003F42000000
(1791112171.901735) can0 33D#0000102000280000
(1791112171.901977) can0 3B7#00004000000D4D00
(1791112171.902224) can0 491#0000000000000000
(1791112171.905289) can0 297#0101E040FFFF8C2C
(1791112171.905529) can0 29B#BB967002FD100000
(1791112171.955313) can0 297#0101E040FFFF8D2D
(1791112171.955539) can0 29B#BB967002FD100000
(1791112171.959955) can0 29C#2800000000000000
(1791112171.960195) can0 33F#0000000028000040
(1791112171.960468) can0 394#0036000010370F1E
(1791112171.960745) can0 396#3B6D4E2800454545
(1791112171.961046) can0 39A#003602005C000000
(1791112171.961332) can0 39B#3C3A820000003CB8
(1791112172.001062) can0 33B#0000003E00000000
(1791112172.001272) can0 323#0000000000000000
(1791112172.001520) can0 324#0000003F42000000
(1791112172.001759) can0 33D#0000102000280000
(1791112172.002007) can0 3B7#00004000000E4E00
(1791112172.002237) can0 491#0000000000000000
(1791112172.005334) can0 297#0101E040FFFF8E2E
(1791112172.005536) can0 29B#BB967002FD100000
(1791112172.055274) can0 297#0101E040FFFF8F2F
(1791112172.055516) can0 29B#BB967002FD100000
(1791112172.059931) can0 29C#2800000000000000
(1791112172.060197) can0 33F#0000000028000040
(1791112172.060470) can0 394#0036000010370011
(1791112172.060745) can0 396#3B6D4E2800454545
(1791112172.061024) can0 39A#003602006BC00000
(1791112172.061305) can0 39B#3C3A820000000084
(1791112172.101128) can0 33B#0000003E00000000
(1791112172.101283) can0 323#0000000000000000
(1791112172.101552) can0 324#0000003F42000000
(1791112172.101776) can0 33D#0000102000280000
(1791112172.102022) can0 3B7#00004000000F4F00
(1791112172.102273) can0 491#0000000000000000
(1791112172.105281) can0 297#0101E040FFFF8020
(1791112172.105537) can0 29B#BB967002FD100000
(1791112172.155294) can0 297#0101E040FFFF8121
(1791112172.155530) can0 29B#BB967002FD100000
(1791112172.159936) can0 29C#2800000000000000
(1791112172.160196) can0 33F#0000000028000040
(1791112172.160470) can0 394#0036000010370110
(1791112172.160735) can0 396#3B6D4E2800454545
(1791112172.161047) can0 39A#003602007B800000
(1791112172.161329) can0 39B#3C3A820000000480
(1791112172.201068) can0 33B#0000003E00000000
(1791112172.201257) can0 323#0000000000000000
(1791112172.201507) can0 324#0000003F42000000
(1791112172.201753) can0 33D#0000102000280000
(1791112172.201993) can0 3B7#0000400000004000
(1791112172.202256) can0 491#0000000000000000
(1791112172.205294) can0 297#0101E040FFFF8222
(1791112172.205546) can0 29B#BB967002FD100000
(1791112172.255297) can0 297#0101E040FFFF8323
(1791112172.255521) can0 29B#BB967002FD100000
(1791112172.259972) can0 29C#2800000000000000
(1791112172.260196) can0 33F#0000000028000040
(1791112172.260473) can0 394#0036000010370213
(1791112172.260740) can0 396#3B6D4E2800454545
(1791112172.261036) can0 39A#003602008B400000
(1791112172.261324) can0 39B#3C3A82000000088C
(1791112172.301087) can0 33B#0000003E00000000
(1791112172.301286) can0 323#0000000000000000
(1791112172.301547) can0 324#0000003F42000000
(1791112172.301784) can0 33D#0000102000280000
(1791112172.302038) can0 3B7#0000400000014100
(1791112172.302281) can0 491#0000000000000000
(1791112172.305237) can0 297#0101E040FFFF8424
(1791112172.305514) can0 29B#BB967002FD100000
(1791112172.355286) can0 297#0101E040FFFF8525
(1791112172.355568) can0 29B#BB967002FD100000
(1791112172.360006) can0 29C#2800000000000000
(1791112172.360202) can0 33F#0000000028000040
(1791112172.360473) can0 394#0036000010370312
(1791112172.360733) can0 396#3B6D4E2800454545
(1791112172.361040) can0 39A#003602009B000000
(1791112172.361299) can0 39B#3C3A820000000C88
(1791112172.401124) can0 33B#0000003E00000000
(1791112172.401330) can0 323#0000000000001D65
(1791112172.401563) can0 324#0000003F42000000
(1791112172.401809) can0 33D#0000102000280000
(1791112172.402058) can0 3B7#0000400000024200
(1791112172.402314) can0 491#0000000000000000
(1791112172.405294) can0 297#0101E040FFFF8626
(1791112172.405522) can0 29B#BB967002FD100000
(1791112172.455339) can0 297#0101E040FFFF8727
(1791112172.455515) can0 29B#BB967002FD100000
(1791112172.459948) can0 29C#2800000000000000
(1791112172.460189) can0 33F#0000000028000040
(1791112172.460465) can0 394#0036000010370415
(1791112172.460732) can0 396#3B6D4E2800454545
(1791112172.461029) can0 39A#00360200AAC00000
(1791112172.461300) can0 39B#3C3A820000001094
(1791112172.501090) can0 33B#0000003E00000000
(1791112172.501306) can0 323#0000000000001D65
(1791112172.501544) can0 324#0000003F42000000
(1791112172.501784) can0 33D#0000102000280000
(1791112172.502025) can0 3B7#0000400000034300
(1791112172.502264) can0 491#0000000000000000
(1791112172.505322) can0 297#0101E040FFFF8828
(1791112172.505548) can0 29B#BB967002FD100000
(1791112172.555281) can0 297#0101E040FFFF8929
(1791112172.555536) can0 29B#BB967002FD100000
(1791112172.559921) can0 29C#2800000000000000
(1791112172.560189) can0 33F#0000000028000040
(1791112172.560457) can0 394#0036000010370514
(1791112172.560734) can0 396#3B6D4E2800454545
(1791112172.561014) can0 39A#00360200BA800000
(1791112172.561314) can0 39B#3C3A820000001490
(1791112172.601123) can0 33B#0000003E00000000
(1791112172.601279) can0 323#0000000000001D65
(1791112172.601522) can0 324#0000003F42000000
(1791112172.601773) can0 33D#0000102000280000
(1791112172.602014) can0 3B7#0000400000044400
(1791112172.602247) can0 491#0000000000000000
(1791112172.605275) can0 297#0101E040FFFF8A2A
(1791112172.605515) can0 29B#BB967002FD100000
(1791112172.655264) can0 297#0101E040FFFF8B2B
(1791112172.655520) can0 29B#BB967002FD100000
(1791112172.659933) can0 29C#2800000000000000
(1791112172.660193) can0 33F#0000000028000040
(1791112172.660473) can0 394#0036000010370617
(1791112172.660738) can0 396#3B6D4E2800454545
(1791112172.661028) can0 39A#00360200CA400000
(1791112172.661344) can0 39B#3C3A82000000189C
(1791112172.701070) can0 33B#0000003E00000000
(1791112172.701269) can0 323#0000000000001D65
(1791112172.701517) can0 324#0000003F42000000
(1791112172.701745) can0 33D#0000102000280000
(1791112172.702018) can0 3B7#0000400000054500
(1791112172.702256) can0 491#0000000000000000
(1791112172.705239) can0 297#0101E040FFFF8C2C
(1791112172.705519) can0 29B#BB967002FD100000
(1791112172.755292) can0 297#0101E040FFFF8D2D
(1791112172.755540) can0 29B#BB967002FD100000
(1791112172.759964) can0 29C#2800000000000000
(1791112172.760200) can0 33F#0000000028000040
(1791112172.760491) can0 394#0036000010370716
(1791112172.760748) can0 396#3B6D4E2800454545
(1791112172.761064) can0 39A#00360200DA000000
(1791112172.761444) can0 39B#3C3A820000001C98
(1791112172.801125) can0 33B#0000003E00000000
(1791112172.801335) can0 323#0000000000001D65
(1791112172.801570) can0 324#0000003F42000000
(1791112172.801818) can0 33D#0000102000280000
(1791112172.802070) can0 3B7#0000400000064600
(1791112172.802296) can0 491#0000000000000000
(1791112172.805261) can0 297#0101E040FFFF8E2E
(1791112172.805522) can0 29B#BB967002FD100000
(1791112172.855280) can0 297#0101E040FFFF8F2F
(1791112172.855522) can0 29B#BB967002FD100000
(1791112172.859954) can0 29C#2800000000000000
(1791112172.860198) can0 33F#0000000028000040
(1791112172.860450) can0 394#0036000010370819
(1791112172.860726) can0 396#3B6D4E2800454545
(1791112172.861025) can0 39A#00360200E9C00000
(1791112172.861302) can0 39B#3C3A8200000020A4
(1791112172.901072) can0 33B#0000003E00000000
(1791112172.901270) can0 323#0000000000001FAD
(1791112172.901510) can0 324#0000003F42000000
(1791112172.901781) can0 33D#0000102000280000
(1791112172.902013) can0 3B7#0000400000074700
(1791112172.902261) can0 491#0000000000000000
(1791112172.905288) can0 297#0101E040FFFF8020
(1791112172.905512) can0 29B#BB967002FD100000
(1791112172.955318) can0 297#0101E040FFFF8121
(1791112172.955523) can0 29B#BB967002FD100000
(1791112172.959942) can0 29C#2800000000000000
(1791112172.960192) can0 33F#0000000028000040
(1791112172.960459) can0 394#0036000010370918
(1791112172.960739) can0 396#3B6D4E2800454545
(1791112172.961030) can0 39A#00360200F9800000
(1791112172.961306) can0 39B#3C3A8200000024A0
(1791112173.001081) can0 33B#0000003E00000000
(1791112173.001282) can0 323#0000000000001FAD
(1791112173.001526) can0 324#0000003F42000000
(1791112173.001766) can0 33D#0000102000280000
(1791112173.002012) can0 3B7#0000400000084800
(1791112173.002271) can0 491#0000000000000000
(1791112173.005325) can0 297#0101E040FFFF8222
(1791112173.005518) can0 29B#BB967002FD100000
(1791112173.055265) can0 297#0101E040FFFF8323
(1791112173.055524) can0 29B#BB967002FD100000
(1791112173.059913) can0 29C#2800000000000000
(1791112173.060190) can0 33F#0000000028000040
(1791112173.060478) can0 394#0036000010370A1B
(1791112173.060756) can0 396#3B6D4E2800454545
(1791112173.061036) can0 39A#0036020009400000
(1791112173.061326) can0 39B#3C3A8200000028AC
(1791112173.101167) can0 33B#0000003E00000000
(1791112173.101295) can0 323#0000000000001FAD
(1791112173.101523) can0 324#0000003F42000000
(1791112173.101771) can0 33D#0000102000280000
(1791112173.102018) can0 3B7#0000400000094900
(1791112173.102263) can0 491#0000000000000000
(1791112173.105236) can0 297#0101E040FFFF8424
(1791112173.105523) can0 29B#BB967002FD100000
(1791112173.155260) can0 297#0101E040FFFF8525
(1791112173.155524) can0 29B#BB967002FD100000
(1791112173.159951) can0 29C#2800000000000000
(1791112173.160203) can0 33F#0000000028000040
(1791112173.160484) can0 394#0036000010370B1A
(1791112173.160787) can0 396#3B6D4E2800454545
(1791112173.161035) can0 39A#0036020019000000
(1791112173.161309) can0 39B#3C3A820000002CA8
(1791112173.201149) can0 33B#0000003E00000000
(1791112173.201361) can0 323#0000000000001FAD
(1791112173.201591) can0 324#0000003F42000000
(1791112173.201868) can0 33D#0000102000280000
(1791112173.202085) can0 3B7#00004000000A4A00
(1791112173.202329) can0 491#0000000000000000
(1791112173.205242) can0 297#0101E040FFFF8626
(1791112173.205522) can0 29B#BB967002FD100000
(1791112173.255275) can0 297#0101E040FFFF8727
(1791112173.255504) can0 29B#BB967002FD100000
(1791112173.259956) can0 29C#2800000000000000
(1791112173.260201) can0 33F#0000000028000040
(1791112173.260479) can0 394#0036000010370C1D
(1791112173.260803) can0 396#3B6D4E2800454545
(1791112173.261069) can0 39A#0036020028C00000
(1791112173.261323) can0 39B#3C3A8200000030B4
(1791112173.301125) can0 33B#0000003E00000000
(1791112173.301329) can0 323#0000000000001FAD
(1791112173.301567) can0 324#0000003F42000000
(1791112173.301810) can0 33D#0000102000280000
(1791112173.302055) can0 3B7#00004000000B4B00
(1791112173.302301) can0 491#0000000000000000
(1791112173.305301) can0 297#0101E040FFFF8828
(1791112173.305542) can0 29B#BB967002FD100000
(1791112173.355287) can0 297#0101E040FFFF8929
(1791112173.355525) can0 29B#BB967002FD100000
(1791112173.359943) can0 29C#2800000000000000
(1791112173.360179) can0 33F#0000000028000040
(1791112173.360459) can0 394#0036000010370D1C
(1791112173.360714) can0 396#3B6D4E2800454545
(1791112173.361017) can0 39A#0036020038800000
(1791112173.361309) can0 39B#3C3A8200000034B0
(1791112173.401128) can0 33B#0000003E00000000
(1791112173.401321) can0 323#0000000000001FC5
(1791112173.401560) can0 324#0000003F42000000
(1791112173.401822) can0 33D#0000102000280000
(1791112173.402079) can0 3B7#00004000000C4C00
(1791112173.402311) can0 491#0000000000000000
(1791112173.405311) can0 297#0101E040FFFF8A2A
(1791112173.405550) can0 29B#BB967002FD100000
(1791112173.455261) can0 297#0101E040FFFF8B2B
(1791112173.455507) can0 29B#BB967002FD100000
(1791112173.459915) can0 29C#2800000000000000
(1791112173.460177) can0 33F#0000000028000040
(1791112173.460460) can0 394#0036000010370E1F
(1791112173.460720) can0 396#3B6D4E2800454545
(1791112173.461026) can0 39A#0036020048400000
(1791112173.461305) can0 39B#3C3A8200000038BC
(1791112173.501195) can0 33B#0000003E00000000
(1791112173.501366) can0 323#0000000000001FC5
(1791112173.501602) can0 324#0000003F42000000
(1791112173.501904) can0 33D#0000102000280000
(1791112173.502110) can0 3B7#00004000000D4D00
(1791112173.502333) can0 491#0000000000000000
(1791112173.505260) can0 297#0101E040FFFF8C2C
(1791112173.505514) can0 29B#BB967002FD100000
(1791112173.555265) can0 297#0101E040FFFF8D2D
(1791112173.555514) can0 29B#BB967002FD100000
(1791112173.559914) can0 29C#2800000000000000
(1791112173.560186) can0 33F#0000000028000040
(1791112173.560452) can0 394#0036000010370F1E
(1791112173.560715) can0 396#3B6D4E2800454545
(1791112173.561016) can0 39A#0036020058000000
(1791112173.561316) can0 39B#3C3A820000003CB8
(1791112173.601096) can0 33B#0000003E00000000
(1791112173.601309) can0 323#0000000000001FC5
(1791112173.601562) can0 324#0000003F42000000
(1791112173.601854) can0 33D#0000102000280000
(1791112173.602053) can0 3B7#00004000000E4E00
(1791112173.602302) can0 491#0000000000000000
(1791112173.605238) can0 297#0101E040FFFF8E2E
(1791112173.605515) can0 29B#BB967002FD100000
(1791112173.655283) can0 297#0101E040FFFF8F2F
(1791112173.655508) can0 29B#BB967002FD100000
(1791112173.659971) can0 29C#2800000000000000
(1791112173.660199) can0 33F#0000000028000040
(1791112173.660483) can0 394#0036000010370011
(1791112173.660736) can0 396#3B6D4E2800454545
(1791112173.661034) can0 39A#0036020067C00000
(1791112173.661320) can0 39B#3C3A820000000084
(1791112173.701109) can0 33B#0000003E00000000
(1791112173.701295) can0 323#0000000000001FC5
(1791112173.701541) can0 324#0000003F42000000
(1791112173.701870) can0 33D#0000102000280000
(1791112173.702028) can0 3B7#00004000000F4F00
(1791112173.702290) can0 491#0000000000000000
(1791112173.705260) can0 297#0101E040FFFF8020
(1791112173.705512) can0 29B#BB967002FD100000
(1791112173.755285) can0 297#0101E040FFFF8121
(1791112173.755522) can0 29B#BB967002FD100000
(1791112173.759976) can0 29C#2800000000000000
(1791112173.760185) can0 33F#0000000028000040
(1791112173.760472) can0 394#0036000010370110
(1791112173.760729) can0 396#3B6D4E2800454545
(1791112173.761030) can0 39A#0036020077800000
(1791112173.761325) can0 39B#3C3A820000000480
(1791112173.801278) can0 33B#0000003E00000000
(1791112173.801469) can0 323#0000000000001FC5
(1791112173.801716) can0 324#0000003F42000000
(1791112173.801952) can0 33D#0000102000280000
(1791112173.802207) can0 3B7#0000400000004000
(1791112173.802462) can0 491#0000000000000000
(1791112173.805283) can0 297#0101E040FFFF8222
(1791112173.805526) can0 29B#BB967002FD100000
(1791112173.855334) can0 297#0101E040FFFF8323
(1791112173.855518) can0 29B#BB967002FD100000
(1791112173.859941) can0 29C#2800000000000000
(1791112173.860183) can0 33F#0000000028000040
(1791112173.860464) can0 394#0036000010370213
(1791112173.860722) can0 396#3B6D4E2800454545
(1791112173.861013) can0 39A#0036020087400000
(1791112173.861293) can0 39B#3C3A82000000088C
(1791112173.901125) can0 33B#0000003E00000000
(1791112173.901317) can0 323#0000000000000000
(1791112173.901595) can0 324#0000003F42000000
(1791112173.901911) can0 33D#0000102000280000
(1791112173.902044) can0 3B7#0000400000014100
(1791112173.902292) can0 491#0000000000000000
(1791112173.905314) can0 297#0101E040FFFF8424
(1791112173.905525) can0 29B#BB967002FD100000
(1791112173.955310) can0 297#0101E040FFFF8525
(1791112173.955512) can0 29B#BB967002FD100000
(1791112173.959905) can0 29C#2800000000000000
(1791112173.960173) can0 33F#0000000028000040
(1791112173.960452) can0 394#0036000010370312
(1791112173.960730) can0 396#3B6D4E2800454545
(1791112173.961007) can0 39A#0036020097000000
(1791112173.961300) can0 39B#3C3A820000000C88
(1791112174.001234) can0 33B#0000003E00000000
(1791112174.001393) can0 323#0000000000000000
(1791112174.001648) can0 324#0000003F42000000
(1791112174.002101) can0 33D#0000102000280000
(1791112174.002142) can0 3B7#0000400000024200
(1791112174.002407) can0 491#0000000000000000
(1791112174.005261) can0 297#0101E040FFFF8626
(1791112174.005506) can0 29B#BB967002FD100000
(1791112174.055279) can0 297#0101E040FFFF8727
(1791112174.055517) can0 29B#BB967002FD100000
(1791112174.059926) can0 29C#2800000000000000
(1791112174.060168) can0 33F#0000000028000040
(1791112174.060458) can0 394#0036000010370415
(1791112174.060718) can0 396#3B6D4E2800454545
(1791112174.061018) can0 39A#00360200A6C00000
(1791112174.061328) can0 39B#3C3A820000001094
(1791112174.101147) can0 33B#0000003E00000000
(1791112174.101345) can0 323#0000000000000000
(1791112174.101588) can0 324#0000003F42000000
(1791112174.101900) can0 33D#0000102000280000
(1791112174.102072) can0 3B7#0000400000034300
(1791112174.102325) can0 491#0000000000000000
(1791112174.105220) can0 297#0101E040FFFF8828
(1791112174.105500) can0 29B#BB967002FD100000
(1791112174.155270) can0 297#0101E040FFFF8929
(1791112174.155523) can0 29B#BB967002FD100000
(1791112174.159960) can0 29C#2800000000000000
(1791112174.160187) can0 33F#0000000028000040
(1791112174.160468) can0 394#0036000010370514
(1791112174.160729) can0 396#3B6D4E2800454545
(1791112174.161021) can0 39A#00360200B6800000
(1791112174.161304) can0 39B#3C3A820000001490
(1791112174.201115) can0 33B#0000003E00000000
(1791112174.201327) can0 323#0000000000000000
(1791112174.201573) can0 324#0000003F42000000
(1791112174.201816) can0 33D#0000102000280000
(1791112174.202067) can0 3B7#0000400000044400
(1791112174.202306) can0 491#0000000000000000
(1791112174.205269) can0 297#0101E040FFFF8A2A
(1791112174.205517) can0 29B#BB967002FD100000
(1791112174.255270) can0 297#0101E040FFFF8B2B
(1791112174.255525) can0 29B#BB967002FD100000
(1791112174.259987) can0 29C#2800000000000000
(1791112174.260177) can0 33F#0000000028000040
(1791112174.260460) can0 394#0036000010370617
(1791112174.260709) can0 396#3B6D4E2800454545
(1791112174.261008) can0 39A#00360200C6400000
(1791112174.261308) can0 39B#3C3A82000000189C
(1791112174.301193) can0 33B#0000003E00000000
(1791112174.301390) can0 323#0000000000000000
(1791112174.301641) can0 324#0000003F42000000
(1791112174.301937) can0 33D#0000102000280000
(1791112174.302124) can0 3B7#0000400000054500
(1791112174.302374) can0 491#0000000000000000
(1791112174.305305) can0 297#0101E040FFFF8C2C
(1791112174.305529) can0 29B#BB967002FD100000
(1791112174.355309) can0 297#0101E040FFFF8D2D
(1791112174.355514) can0 29B#BB967002FD100000
(1791112174.359953) can0 29C#2800000000000000
(1791112174.360185) can0 33F#0000000028000040
(1791112174.360452) can0 394#0036000010370716
(1791112174.360706) can0 396#3B6D4E2800454545
(1791112174.361021) can0 39A#00360200D6000000
(1791112174.361284) can0 39B#3C3A820000001C98
(1791112174.401140) can0 33B#0000003E00000000
(1791112174.401348) can0 323#0000000000001D65
(1791112174.401574) can0 324#0000003F42000000
(1791112174.401821) can0 33D#0000102000280000
(1791112174.402067) can0 3B7#0000400000064600
(1791112174.402319) can0 491#0000000000000000
(1791112174.405306) can0 297#0101E040FFFF8E2E
(1791112174.405516) can0 29B#BB967002FD100000
(1791112174.455264) can0 297#0101E040FFFF8F2F
(1791112174.455520) can0 29B#BB967002FD100000
(1791112174.459954) can0 29C#2800000000000000
(1791112174.460176) can0 33F#0000000028000040
(1791112174.460451) can0 394#0036000010370819
(1791112174.460715) can0 396#3B6D4E2800454545
(1791112174.461031) can0 39A#00360200E5C00000
(1791112174.461331) can0 39B#3C3A8200000020A4
(1791112174.501195) can0 33B#0000003E00000000
(1791112174.501362) can0 323#0000000000001D65
(1791112174.501598) can0 324#0000003F42000000
(1791112174.501938) can0 33D#0000102000280000
(1791112174.502094) can0 3B7#0000400000074700
(1791112174.502334) can0 491#0000000000000000
(1791112174.505259) can0 297#0101E040FFFF8020
(1791112174.505493) can0 29B#BB967002FD100000
(1791112174.555273) can0 297#0101E040FFFF8121
(1791112174.555512) can0 29B#BB967002FD100000
(1791112174.560009) can0 29C#2800000000000000
(1791112174.560185) can0 33F#0000000028000040
(1791112174.560486) can0 394#0036000010370918
(1791112174.560729) can0 396#3B6D4E2800454545
(1791112174.561016) can0 39A#00360200F5800000
(1791112174.561320) can0 39B#3C3A8200000024A0
(1791112174.601212) can0 33B#0000003E00000000
(1791112174.601415) can0 323#0000000000001D65
(1791112174.601653) can0 324#0000003F42000000
(1791112174.601963) can0 33D#0000102000280000
(1791112174.602144) can0 3B7#0000400000084800
(1791112174.602403) can0 491#0000000000000000
(1791112174.605236) can0 297#0101E040FFFF8222
(1791112174.605508) can0 29B#BB967002FD100000
(1791112174.655271) can0 297#0101E040FFFF8323
(1791112174.655507) can0 29B#BB967002FD100000
(1791112174.659980) can0 29C#2800000000000000
(1791112174.660183) can0 33F#0000000028000040
(1791112174.660460) can0 394#0036000010370A1B
(1791112174.660748) can0 396#3B6D4E2800454545
(1791112174.661014) can0 39A#0036020005400000
(1791112174.661334) can0 39B#3C3A8200000028AC
(1791112174.701144) can0 33B#0000003E00000000
(1791112174.701358) can0 323#0000000000001D65
(1791112174.701580) can0 324#0000003F42000000
(1791112174.701824) can0 33D#0000102000280000
(1791112174.702072) can0 3B7#0000400000094900
(1791112174.702321) can0 491#0000000000000000
(1791112174.705273) can0 297#0101E040FFFF8424
(1791112174.705517) can0 29B#BB967002FD100000
(1791112174.755275) can0 297#0101E040FFFF8525
(1791112174.755528) can0 29B#BB967002FD100000
(1791112174.759922) can0 29C#2800000000000000
(1791112174.760171) can0 33F#0000000028000040
(1791112174.760453) can0 394#0036000010370B1A
(1791112174.760731) can0 396#3B6D4E2800454545
(1791112174.761009) can0 39A#0036020015000000
(1791112174.761303) can0 39B#3C3A820000002CA8
(1791112174.801243) can0 33B#0000003E00000000
(1791112174.801451) can0 323#0000000000001D65
(1791112174.801692) can0 324#0000003F42000000
(1791112174.802013) can0 33D#0000102000280000
(1791112174.802179) can0 3B7#00004000000A4A00
(1791112174.802420) can0 491#0000000000000000
(1791112174.805301) can0 297#0101E040FFFF8626
(1791112174.805512) can0 29B#BB967002FD100000
(1791112174.855317) can0 297#0101E040FFFF8727
(1791112174.855514) can0 29B#BB967002FD100000
(1791112174.859888) can0 29C#2800000000000000
(1791112174.860170) can0 33F#0000000028000040
(1791112174.860447) can0 394#0036000010370C1D
(1791112174.860725) can0 396#3B6D4E2800454545
(1791112174.861021) can0 39A#0036020024C00000
(1791112174.861293) can0 39B#3C3A8200000030B4
(1791112174.901140) can0 33B#0000003E00000000
(1791112174.901367) can0 323#0000000000001FAD
(1791112174.901616) can0 324#0000003F42000000
(1791112174.901916) can0 33D#0000102000280000
(1791112174.902087) can0 3B7#00004000000B4B00
(1791112174.902353) can0 491#0000000000000000
(1791112174.905254) can0 297#0101E040FFFF8828
(1791112174.905507) can0 29B#BB967002FD100000
(1791112174.955257) can0 297#0101E040FFFF8929
(1791112174.955501) can0 29B#BB967002FD100000
(1791112174.959910) can0 29C#2800000000000000
(1791112174.960184) can0 33F#0000000028000040
(1791112174.960457) can0 394#0036000010370D1C
(1791112174.960714) can0 396#3B6D4E2800454545
(1791112174.961008) can0 39A#0036020034800000
(1791112174.961290) can0 39B#3C3A8200000034B0
(1791112175.001155) can0 33B#0000003E00000000
(1791112175.001351) can0 323#0000000000001FAD
(1791112175.001593) can0 324#0000003F42000000
(1791112175.001876) can0 33D#0000102000280000
(1791112175.002085) can0 3B7#00004000000C4C00
(1791112175.002333) can0 491#0000000000000000
(1791112175.005217) can0 297#0101E040FFFF8A2A
(1791112175.005496) can0 29B#BB967002FD100000
(1791112175.055263) can0 297#0101E040FFFF8B2B
(1791112175.055499) can0 29B#BB967002FD100000
(1791112175.059948) can0 29C#2800000000000000
(1791112175.060174) can0 33F#0000000028000040
(1791112175.060467) can0 394#0036000010370E1F
(1791112175.060865) can0 396#3B6D4E2800454545
(1791112175.061038) can0 39A#0036020044400000
(1791112175.061304) can0 39B#3C3A8200000038BC
(1791112175.101165) can0 33B#0000003E00000000
(1791112175.101375) can0 323#0000000000001FAD
(1791112175.101620) can0 324#0000003F42000000
(1791112175.101873) can0 33D#0000102000280000
(1791112175.102104) can0 3B7#00004000000D4D00
(1791112175.102369) can0 491#0000000000000000
(1791112175.105228) can0 297#0101E040FFFF8C2C
(1791112175.105496) can0 29B#BB967002FD100000
(1791112175.155273) can0 297#0101E040FFFF8D2D
(1791112175.155516) can0 29B#BB967002FD100000
(1791112175.159984) can0 29C#2800000000000000
(1791112175.160208) can0 33F#0000000028000040
(1791112175.160442) can0 394#0036000010370F1E
(1791112175.160724) can0 396#3B6D4E2800454545
(1791112175.161041) can0 39A#0036020054000000
(1791112175.161301) can0 39B#3C3A820000003CB8
(1791112175.201152) can0 33B#0000003E00000000
(1791112175.201353) can0 323#0000000000001FAD
(1791112175.201623) can0 324#0000003F42000000
(1791112175.201900) can0 33D#0000102000280000
(1791112175.202100) can0 3B7#00004000000E4E00
(1791112175.202349) can0 491#0000000000000000
(1791112175.205272) can0 297#0101E040FFFF8E2E
(1791112175.205540) can0 29B#BB967002FD100000
(1791112175.255257) can0 297#0101E040FFFF8F2F
(1791112175.255511) can0 29B#BB967002FD100000
(1791112175.259935) can0 29C#2800000000000000
(1791112175.260185) can0 33F#0000000028000040
(1791112175.260452) can0 394#0036000010370011
(1791112175.260711) can0 396#3B6D4E2800454545
(1791112175.261051) can0 39A#0036020063C00000
(1791112175.261284) can0 39B#3C3A820000000084
(1791112175.301206) can0 33B#0000003E00000000
(1791112175.301416) can0 323#0000000000001FAD
(1791112175.301643) can0 324#0000003F42000000
(1791112175.301900) can0 33D#0000102000280000
(1791112175.302132) can0 3B7#00004000000F4F00
(1791112175.302370) can0 491#0000000000000000
(1791112175.305316) can0 297#0101E040FFFF8020
(1791112175.305518) can0 29B#BB967002FD100000
(1791112175.355264) can0 297#0101E040FFFF8121
(1791112175.355504) can0 29B#BB967002FD100000
(1791112175.359885) can0 29C#2800000000000000
(1791112175.360154) can0 33F#0000000028000040
(1791112175.360433) can0 394#0036000010370110
(1791112175.360712) can0 396#3B6D4E2800454545
(1791112175.361054) can0 39A#0036020073800000
(1791112175.361292) can0 39B#3C3A820000000480
(1791112175.401228) can0 33B#0000003E00000000
(1791112175.401367) can0 323#0000000000001FC5
(1791112175.401628) can0 324#0000003F42000000
(1791112175.401920) can0 33D#0000102000280000
(1791112175.402114) can0 3B7#0000400000004000
(1791112175.402368) can0 491#0000000000000000
(1791112175.405231) can0 297#0101E040FFFF8222
(1791112175.405496) can0 29B#BB967002FD100000
(1791112175.455251) can0 297#0101E040FFFF8323
(1791112175.455496) can0 29B#BB967002FD100000
(1791112175.459920) can0 29C#2800000000000000
(1791112175.460170) can0 33F#0000000028000040
(1791112175.460465) can0 394#0036000010370213
(1791112175.460719) can0 396#3B6D4E2800454545
(1791112175.461074) can0 39A#0036020083400000
(1791112175.461295) can0 39B#3C3A82000000088C
(1791112175.501163) can0 33B#0000003E00000000
(1791112175.501377) can0 323#0000000000001FC5
(1791112175.501610) can0 324#0000003F42000000
(1791112175.501887) can0 33D#0000102000280000
(1791112175.502101) can0 3B7#0000400000014100
(1791112175.502361) can0 491#0000000000000000
(1791112175.505220) can0 297#0101E040FFFF8424
(1791112175.505498) can0 29B#BB967002FD100000
(1791112175.555258) can0 297#0101E040FFFF8525
(1791112175.555511) can0 29B#BB967002FD100000
(1791112175.559948) can0 29C#2800000000000000
(1791112175.560168) can0 33F#0000000028000040
(1791112175.560463) can0 394#0036000010370312
(1791112175.560715) can0 396#3B6D4E2800454545
(1791112175.561027) can0 39A#0036020093000000
(1791112175.561285) can0 39B#3C3A820000000C88
(1791112175.601170) can0 33B#0000003E00000000
(1791112175.601366) can0 323#0000000000001FC5
(1791112175.601604) can0 324#0000003F42000000
(1791112175.601868) can0 33D#0000102000280000
(1791112175.602123) can0 3B7#0000400000024200
(1791112175.602366) can0 491#0000000000000000
(1791112175.605274) can0 297#0101E040FFFF8626
(1791112175.605522) can0 29B#BB967002FD100000
(1791112175.655296) can0 297#0101E040FFFF8727
(1791112175.655521) can0 29B#BB967002FD100000
(1791112175.659973) can0 29C#2800000000000000
(1791112175.660179) can0 33F#0000000028000040
(1791112175.660453) can0 394#0036000010370415
(1791112175.660710) can0 396#3B6D4E2800454545
(1791112175.661006) can0 39A#00360200A2C00000
(1791112175.661285) can0 39B#3C3A820000001094
(1791112175.701199) can0 33B#0000003E00000000
(1791112175.701403) can0 323#0000000000001FC5
(1791112175.701636) can0 324#0000003F42000000
(1791112175.701898) can0 33D#0000102000280000
(1791112175.702134) can0 3B7#0000400000034300
(1791112175.702383) can0 491#0000000000000000
(1791112175.705269) can0 297#0101E040FFFF8828
(1791112175.705508) can0 29B#BB967002FD100000
(1791112175.755316) can0 297#0101E040FFFF8929
(1791112175.755507) can0 29B#BB967002FD100000
(1791112175.759928) can0 29C#2800000000000000
(1791112175.760171) can0 33F#0000000028000040
(1791112175.760427) can0 394#0036000010370514
(1791112175.760711) can0 396#3B6D4E2800454545
(1791112175.761008) can0 39A#00360200B2800000
(1791112175.761286) can0 39B#3C3A820000001490
(1791112175.801326) can0 33B#0000003E00000000
(1791112175.801497) can0 323#0000000000001FC5
(1791112175.801762) can0 324#0000003F42000000
(1791112175.802003) can0 33D#0000102000280000
(1791112175.802246) can0 3B7#0000400000044400
(1791112175.802495) can0 491#0000000000000000
(1791112175.805364) can0 297#0101E040FFFF8A2A
(1791112175.805592) can0 29B#BB967002FD100000
(1791112175.855264) can0 297#0101E040FFFF8B2B
(1791112175.855501) can0 29B#BB967002FD100000
(1791112175.859894) can0 29C#2800000000000000
(1791112175.860172) can0 33F#0000000028000040
(1791112175.860435) can0 394#0036000010370617
(1791112175.860722) can0 396#3B6D4E2800454545
(1791112175.861001) can0 39A#00360200C2400000
(1791112175.861303) can0 39B#3C3A82000000189C
(1791112175.901305) can0 33B#0000003E00000000
(1791112175.901473) can0 323#0000000000000000
(1791112175.901712) can0 324#0000003F42000000
(1791112175.901977) can0 33D#0000102000280000
(1791112175.902204) can0 3B7#0000400000054500
(1791112175.902457) can0 491#0000000000000000
(1791112175.905209) can0 297#0101E040FFFF8C2C
(1791112175.905487) can0 29B#BB967002FD100000
(1791112175.955253) can0 297#0101E040FFFF8D2D
(1791112175.955494) can0 29B#BB967002FD100000
(1791112175.959937) can0 29C#2800000000000000
(1791112175.960185) can0 33F#0000000028000040
(1791112175.960461) can0 394#0036000010370716
(1791112175.960713) can0 396#3B6D4E2800454545
(1791112175.961018) can0 39A#00360200D2000000
(1791112175.961293) can0 39B#3C3A820000001C98
(1791112176.001187) can0 33B#0000003E00000000
(1791112176.001406) can0 323#0000000000000000
(1791112176.001631) can0 324#0000003F42000000
(1791112176.001910) can0 33D#0000102000280000
(1791112176.002146) can0 3B7#0000400000064600
(1791112176.002363) can0 491#0000000000000000
(1791112176.005213) can0 297#0101E040FFFF8E2E
(1791112176.005489) can0 29B#BB967002FD100000
(1791112176.055249) can0 297#0101E040FFFF8F2F
(1791112176.055497) can0 29B#BB967002FD100000
(1791112176.060012) can0 29C#2800000000000000
(1791112176.060184) can0 33F#0000000028000040
(1791112176.060449) can0 394#0036000010370819
(1791112176.060731) can0 396#3B6D4E2800454545
(1791112176.061021) can0 39A#00360200E1C00000
(1791112176.061303) can0 39B#3C3A8200000020A4
(1791112176.101199) can0 33B#0000003E00000000
(1791112176.101391) can0 323#0000000000000000
(1791112176.101631) can0 324#0000003F42000000
(1791112176.101880) can0 33D#0000102000280000
(1791112176.102158) can0 3B7#0000400000074700
(1791112176.102379) can0 491#0000000000000000
(1791112176.105273) can0 297#0101E040FFFF8020
(1791112176.105500) can0 29B#BB967002FD100000
(1791112176.155261) can0 297#0101E040FFFF8121
(1791112176.155496) can0 29B#BB967002FD100000
(1791112176.159927) can0 29C#2800000000000000
(1791112176.160170) can0 33F#0000000028000040
(1791112176.160437) can0 394#0036000010370918
(1791112176.160706) can0 396#3B6D4E2800454545
(1791112176.161014) can0 39A#00360200F1800000
(1791112176.161292) can0 39B#3C3A8200000024A0
(1791112176.201228) can0 33B#0000003E00000000
(1791112176.201388) can0 323#0000000000000000
(1791112176.201653) can0 324#0000003F42000000
(1791112176.201910) can0 33D#0000102000280000
(1791112176.202194) can0 3B7#0000400000084800
(1791112176.202372) can0 491#0000000000000000
(1791112176.205314) can0 297#0101E040FFFF8222
(1791112176.205516) can0 29B#BB967002FD100000
(1791112176.255299) can0 297#0101E040FFFF8323
(1791112176.255495) can0 29B#BB967002FD100000
(1791112176.259904) can0 29C#2800000000000000
(1791112176.260180) can0 33F#0000000028000040
(1791112176.260429) can0 394#0036000010370A1B
(1791112176.260709) can0 396#3B6D4E2800454545
(1791112176.260999) can0 39A#0036020001400000
(1791112176.261284) can0 39B#3C3A8200000028AC
(1791112176.301304) can0 33B#0000003E00000000
(1791112176.301448) can0 323#0000000000000000
(1791112176.301669) can0 324#0000003F42000000
(1791112176.301943) can0 33D#0000102000280000
(1791112176.302192) can0 3B7#0000400000094900
(1791112176.302583) can0 491#0000000000000000
(1791112176.305252) can0 297#0101E040FFFF8424
(1791112176.305517) can0 29B#BB967002FD100000
(1791112176.355263) can0 297#0101E040FFFF8525
