(1789541804.451392) can0 33B#0000003F00000000
(1789541804.451624) can0 323#0000000000000000
(1789541804.451859) can0 324#0000004041000000
(1789541804.452101) can0 33D#0000102000280000
(1789541804.452356) can0 3B7#0000000000058287
(1789541804.452600) can0 491#0000000000000000
(1789541804.551392) can0 33B#0000003F00000000
(1789541804.551624) can0 323#0000000000000000
(1789541804.551882) can0 324#0000004041000000
(1789541804.552116) can0 33D#0000102000280000
(1789541804.552362) can0 3B7#0000000000068187
(1789541804.552618) can0 491#0000000000000000
(1789541804.651449) can0 33B#0000003F00000000
(1789541804.651667) can0 323#0000000000000000
(1789541804.651905) can0 324#0000004041000000
(1789541804.652161) can0 33D#0000102000280000
(1789541804.652406) can0 3B7#0000000000078087
(1789541804.652662) can0 491#0000000000000000
(1789541804.751459) can0 33B#0000003F00000000
(1789541804.751670) can0 323#0000000000001D65
(1789541804.751927) can0 324#0000004041000000
(1789541804.752178) can0 33D#0000102000280000
(1789541804.752420) can0 3B7#0000000000088F87
(1789541804.752675) can0 491#0000000000000000
(1789541804.851470) can0 33B#0000003F00000000
(1789541804.851683) can0 323#0000000000001D65
(1789541804.851930) can0 324#0000004041000000
(1789541804.852189) can0 33D#0000102000280000
(1789541804.852422) can0 3B7#0000000000098E87
(1789541804.852667) can0 491#0000000000000000
(1789541804.951408) can0 33B#0000003F00000000
(1789541804.951615) can0 323#0000000000001D65
(1789541804.951857) can0 324#0000004041000000
(1789541804.952096) can0 33D#0000102000280000
(1789541804.952345) can0 3B7#00000000000A8D87
(1789541804.952604) can0 491#0000000000000000
(1789541805.051489) can0 33B#0000003F00000000
(1789541805.051713) can0 323#0000000000001D65
(1789541805.051955) can0 324#0000004041000000
(1789541805.052191) can0 33D#0000102000280000
(1789541805.052431) can0 3B7#00000000000B8C87
(1789541805.052682) can0 491#0000000000000000
(1789541805.151672) can0 33B#0000003F00000000
(1789541805.151878) can0 323#0000000000001D65
(1789541805.152136) can0 324#0000004041000000
(1789541805.152372) can0 33D#0000102000280000
(1789541805.152617) can0 3B7#00000000000C8B87
(1789541805.152863) can0 491#0000000000000000
(1789541805.251419) can0 33B#0000003F00000000
(1789541805.251638) can0 323#0000000000001FAD
(1789541805.251883) can0 324#0000004041000000
(1789541805.252122) can0 33D#0000102000280000
(1789541805.252365) can0 3B7#00000000000D8A87
(1789541805.252615) can0 491#0000000000000000
(1789541805.351437) can0 33B#0000003F00000000
(1789541805.351640) can0 323#0000000000001FAD
(1789541805.351880) can0 324#0000004041000000
(1789541805.352125) can0 33D#0000102000280000
(1789541805.352372) can0 3B7#00000000000E8987
(1789541805.352625) can0 491#0000000000000000
(1789541805.451490) can0 33B#0000003F00000000
(1789541805.451693) can0 323#0000000000001FAD
(1789541805.451940) can0 324#0000004041000000
(1789541805.452190) can0 33D#0000102000280000
(1789541805.452433) can0 3B7#00000000000F8887
(1789541805.452670) can0 491#0000000000000000
(1789541805.551434) can0 33B#0000003F00000000
(1789541805.551633) can0 323#0000000000001FAD
(1789541805.551897) can0 324#0000004041000000
(1789541805.552147) can0 33D#0000102000280000
(1789541805.552378) can0 3B7#0000000000008787
(1789541805.552628) can0 491#0000000000000000
(1789541805.651545) can0 33B#0000003F00000000
(1789541805.651765) can0 323#0000000000001FAD
(1789541805.652008) can0 324#0000004041000000
(1789541805.652267) can0 33D#0000102000280000
(1789541805.652491) can0 3B7#0000000000018687
(1789541805.652759) can0 491#0000000000000000
(1789541805.751535) can0 33B#0000003F00000000
(1789541805.751755) can0 323#0000000000000000
(1789541805.751991) can0 324#0000004041000000
(1789541805.752235) can0 33D#0000102000280000
(1789541805.752484) can0 3B7#0000000000028587
(1789541805.752721) can0 491#0000000000000000
(1789541805.851424) can0 33B#0000003F00000000
(1789541805.851660) can0 323#0000000000000000
(1789541805.851936) can0 324#0000004041000000
(1789541805.852143) can0 33D#0000102000280000
(1789541805.852382) can0 3B7#0000000000038487
(1789541805.852632) can0 491#0000000000000000
(1789541805.951495) can0 33B#0000003F00000000
(1789541805.951706) can0 323#0000000000000000
(1789541805.951970) can0 324#0000004041000000
(1789541805.952209) can0 33D#0000102000280000
(1789541805.952462) can0 3B7#0000000000048387
(1789541805.952702) can0 491#0000000000000000
(1789541806.051432) can0 33B#0000003F00000000
(1789541806.051672) can0 323#0000000000000000
(1789541806.051966) can0 324#0000004041000000
(1789541806.052155) can0 33D#0000102000280000
(1789541806.052391) can0 3B7#0000000000058287
(1789541806.052636) can0 491#0000000000000000
(1789541806.151514) can0 33B#0000003F00000000
(1789541806.151705) can0 323#0000000000000000
(1789541806.151978) can0 324#0000004041000000
(1789541806.152208) can0 33D#0000102000280000
(1789541806.152448) can0 3B7#0000000000068187
(1789541806.152699) can0 491#0000000000000000
(1789541806.251466) can0 33B#0000003F00000000
(1789541806.251681) can0 323#0000000000001D65
(1789541806.251916) can0 324#0000004041000000
(1789541806.252165) can0 33D#0000102000280000
(1789541806.252413) can0 3B7#0000000000078087
(1789541806.252673) can0 491#0000000000000000
(1789541806.351543) can0 33B#0000003F00000000
(1789541806.351767) can0 323#0000000000001D65
(1789541806.352012) can0 324#0000004041000000
(1789541806.352256) can0 33D#0000102000280000
(1789541806.352501) can0 3B7#0000000000088F87
(1789541806.352738) can0 491#0000000000000000
(1789541806.451452) can0 33B#0000003F00000000
(1789541806.451665) can0 323#0000000000001D65
(1789541806.451920) can0 324#0000004041000000
(1789541806.452172) can0 33D#0000102000280000
(1789541806.452412) can0 3B7#0000000000098E87
(1789541806.452662) can0 491#0000000000000000
(1789541806.551457) can0 33B#0000003F00000000
(1789541806.551667) can0 323#0000000000001D65
(1789541806.551905) can0 324#0000004041000000
(1789541806.552153) can0 33D#0000102000280000
(1789541806.552406) can0 3B7#00000000000A8D87
(1789541806.552655) can0 491#0000000000000000
(1789541806.651517) can0 33B#0000003F00000000
(1789541806.651748) can0 323#0000000000001D65
(1789541806.652048) can0 324#0000004041000000
(1789541806.652242) can0 33D#0000102000280000
(1789541806.652468) can0 3B7#00000000000B8C87
(1789541806.652726) can0 491#0000000000000000
(1789541806.751536) can0 33B#0000003F00000000
(1789541806.751755) can0 323#0000000000001FAD
(1789541806.752055) can0 324#0000004041000000
(1789541806.752241) can0 33D#0000102000280000
(1789541806.752478) can0 3B7#00000000000C8B87
(1789541806.752739) can0 491#0000000000000000
(1789541806.851477) can0 33B#0000003F00000000
(1789541806.851700) can0 323#0000000000001FAD
(1789541806.851948) can0 324#0000004041000000
(1789541806.852182) can0 33D#0000102000280000
(1789541806.852419) can0 3B7#00000000000D8A87
(1789541806.852669) can0 491#0000000000000000
(1789541806.951460) can0 33B#0000003F00000000
(1789541806.951682) can0 323#0000000000001FAD
(1789541806.951929) can0 324#0000004041000000
(1789541806.952179) can0 33D#0000102000280000
(1789541806.952409) can0 3B7#00000000000E8987
(1789541806.952663) can0 491#0000000000000000
(1789541807.051471) can0 33B#0000003F00000000
(1789541807.051697) can0 323#0000000000001FAD
(1789541807.051922) can0 324#0000004041000000
(1789541807.052173) can0 33D#0000102000280000
(1789541807.052412) can0 3B7#00000000000F8887
(1789541807.052673) can0 491#0000000000000000
(1789541807.151694) can0 33B#0000003F00000000
(1789541807.151902) can0 323#0000000000001FAD
(1789541807.152147) can0 324#0000004041000000
(1789541807.152387) can0 33D#0000102000280000
(1789541807.152637) can0 3B7#0000000000008787
(1789541807.152898) can0 491#0000000000000000
(1789541807.251477) can0 33B#0000003F00000000
(1789541807.251684) can0 323#0000000000000000
(1789541807.251960) can0 324#0000004041000000
(1789541807.252194) can0 33D#0000102000280000
(1789541807.252433) can0 3B7#0000000000018687
(1789541807.252686) can0 491#0000000000000000
(1789541807.351502) can0 33B#0000003F00000000
(1789541807.351715) can0 323#0000000000000000
(1789541807.351983) can0 324#0000004041000000
(1789541807.352238) can0 33D#0000102000280000
(1789541807.352442) can0 3B7#0000000000028587
(1789541807.352711) can0 491#0000000000000000
(1789541807.451525) can0 33B#0000003F00000000
(1789541807.451761) can0 323#0000000000000000
(1789541807.452006) can0 324#0000004041000000
(1789541807.452262) can0 33D#0000102000280000
(1789541807.452489) can0 3B7#0000000000038487
(1789541807.452753) can0 491#0000000000000000
(1789541807.551503) can0 33B#0000003F00000000
(1789541807.551714) can0 323#0000000000000000
(1789541807.551960) can0 324#0000004041000000
(1789541807.552206) can0 33D#0000102000280000
(1789541807.552458) can0 3B7#0000000000048387
(1789541807.552719) can0 491#0000000000000000
(1789541807.651538) can0 33B#0000003F00000000
(1789541807.651768) can0 323#0000000000000000
(1789541807.651999) can0 324#0000004041000000
(1789541807.652242) can0 33D#0000102000280000
(1789541807.652490) can0 3B7#0000000000058287
(1789541807.652749) can0 491#0000000000000000
(1789541807.751523) can0 33B#0000003F00000000
(1789541807.751731) can0 323#0000000000001D65
(1789541807.751976) can0 324#0000004041000000
(1789541807.752226) can0 33D#0000102000280000
(1789541807.752466) can0 3B7#0000000000068187
(1789541807.752709) can0 491#0000000000000000
(1789541807.851561) can0 33B#0000003F00000000
(1789541807.851780) can0 323#0000000000001D65
(1789541807.852009) can0 324#0000004041000000
(1789541807.852265) can0 33D#0000102000280000
(1789541807.852509) can0 3B7#0000000000078087
(1789541807.852752) can0 491#0000000000000000
(1789541807.951496) can0 33B#0000003F00000000
(1789541807.951721) can0 323#0000000000001D65
(1789541807.951967) can0 324#0000004041000000
(1789541807.952213) can0 33D#0000102000280000
(1789541807.952450) can0 3B7#0000000000088F87
(1789541807.952716) can0 491#0000000000000000
(1789541808.051493) can0 33B#0000003F00000000
(1789541808.051715) can0 323#0000000000001D65
(1789541808.051950) can0 324#0000004041000000
(1789541808.052226) can0 33D#0000102000280000
(1789541808.052450) can0 3B7#0000000000098E87
(1789541808.052700) can0 491#0000000000000000
(1789541808.151648) can0 33B#0000003F00000000
(1789541808.151855) can0 323#0000000000001D65
(1789541808.152119) can0 324#0000004041000000
(1789541808.152364) can0 33D#0000102000280000
(1789541808.152601) can0 3B7#00000000000A8D87
(1789541808.152838) can0 491#0000000000000000
(1789541808.251508) can0 33B#0000003F00000000
(1789541808.251710) can0 323#0000000000001FAD
(1789541808.251978) can0 324#0000004041000000
(1789541808.252253) can0 33D#0000102000280000
(1789541808.252440) can0 3B7#00000000000B8C87
(1789541808.252707) can0 491#0000000000000000
(1789541808.351592) can0 33B#0000003F00000000
(1789541808.351792) can0 323#0000000000001FAD
(1789541808.352040) can0 324#0000004041000000
(1789541808.352288) can0 33D#0000102000280000
(1789541808.352528) can0 3B7#00000000000C8B87
(1789541808.352779) can0 491#0000000000000000
(1789541808.451689) can0 33B#0000003F00000000
(1789541808.451811) can0 323#0000000000001FAD
(1789541808.452070) can0 324#0000004041000000
(1789541808.452317) can0 33D#0000102000280000
(1789541808.452567) can0 3B7#00000000000D8A87
(1789541808.452807) can0 491#0000000000000000
(1789541808.551591) can0 33B#0000003F00000000
(1789541808.551813) can0 323#0000000000001FAD
(1789541808.552053) can0 324#0000004041000000
(1789541808.552302) can0 33D#0000102000280000
(1789541808.552544) can0 3B7#00000000000E8987
(1789541808.552794) can0 491#0000000000000000
(1789541808.651558) can0 33B#0000003F00000000
(1789541808.651768) can0 323#0000000000001FAD
(1789541808.652032) can0 324#0000004041000000
(1789541808.652304) can0 33D#0000102000280000
(1789541808.652528) can0 3B7#00000000000F8887
(1789541808.652758) can0 491#0000000000000000
(1789541808.751546) can0 33B#0000003F00000000
(1789541808.751768) can0 323#0000000000000000
(1789541808.752005) can0 324#0000004041000000
(1789541808.752317) can0 33D#0000102000280000
(1789541808.752514) can0 3B7#0000000000008787
(1789541808.752754) can0 491#0000000000000000
(1789541808.851523) can0 33B#0000003F00000000
(1789541808.851742) can0 323#0000000000000000
(1789541808.851999) can0 324#0000004041000000
(1789541808.852244) can0 33D#0000102000280000
(1789541808.852468) can0 3B7#0000000000018687
(1789541808.852728) can0 491#0000000000000000
(1789541808.951517) can0 33B#0000003F00000000
(1789541808.951749) can0 323#0000000000000000
(1789541808.952008) can0 324#0000004041000000
(1789541808.952244) can0 33D#0000102000280000
(1789541808.952473) can0 3B7#0000000000028587
(1789541808.952734) can0 491#0000000000000000
(1789541809.051617) can0 33B#0000003F00000000
(1789541809.051837) can0 323#0000000000000000
(1789541809.052082) can0 324#0000004041000000
(1789541809.052359) can0 33D#0000102000280000
(1789541809.052598) can0 3B7#0000000000038487
(1789541809.052803) can0 491#0000000000000000
(1789541809.151682) can0 33B#0000003F00000000
(1789541809.151918) can0 323#0000000000000000
(1789541809.152162) can0 324#0000004041000000
(1789541809.152411) can0 33D#0000102000280000
(1789541809.152652) can0 3B7#0000000000048387
(1789541809.152894) can0 491#0000000000000000
(1789541809.251610) can0 33B#0000003F00000000
(1789541809.251825) can0 323#0000000000001D65
(1789541809.252068) can0 324#0000004041000000
(1789541809.252313) can0 33D#0000102000280000
(1789541809.252562) can0 3B7#0000000000058287
(1789541809.252820) can0 491#0000000000000000
(1789541809.351614) can0 33B#0000003F00000000
(1789541809.351749) can0 323#0000000000001D65
(1789541809.352007) can0 324#0000004041000000
(1789541809.352247) can0 33D#0000102000280000
(1789541809.352477) can0 3B7#0000000000068187
(1789541809.352746) can0 491#0000000000000000
(1789541809.451538) can0 33B#0000003F00000000
(1789541809.451763) can0 323#0000000000001D65
(1789541809.451993) can0 324#0000004041000000
(1789541809.452243) can0 33D#0000102000280000
(1789541809.452489) can0 3B7#0000000000078087
(1789541809.452758) can0 491#0000000000000000
(1789541809.551622) can0 33B#0000003F00000000
(1789541809.551820) can0 323#0000000000001D65
(1789541809.552081) can0 324#0000004041000000
(1789541809.552331) can0 33D#0000102000280000
(1789541809.552571) can0 3B7#0000000000088F87
(1789541809.552818) can0 491#0000000000000000
(1789541809.651591) can0 33B#0000003F00000000
(1789541809.651801) can0 323#0000000000001D65
(1789541809.652065) can0 324#0000004041000000
(1789541809.652314) can0 33D#0000102000280000
(1789541809.652561) can0 3B7#0000000000098E87
(1789541809.652798) can0 491#0000000000000000
(1789541809.751556) can0 33B#0000003F00000000
(1789541809.751774) can0 323#0000000000001FAD
(1789541809.752012) can0 324#0000004041000000
(1789541809.752259) can0 33D#0000102000280000
(1789541809.752499) can0 3B7#00000000000A8D87
(1789541809.752742) can0 491#0000000000000000
(1789541809.851617) can0 33B#0000003F00000000
(1789541809.851843) can0 323#0000000000001FAD
(1789541809.852091) can0 324#0000004041000000
(1789541809.852342) can0 33D#0000102000280000
(1789541809.852588) can0 3B7#00000000000B8C87
(1789541809.852841) can0 491#0000000000000000
(1789541809.951570) can0 33B#0000003F00000000
(1789541809.951761) can0 323#0000000000001FAD
(1789541809.952018) can0 324#0000004041000000
(1789541809.952266) can0 33D#0000102000280000
(1789541809.952506) can0 3B7#00000000000C8B87
(1789541809.952758) can0 491#0000000000000000
(1789541810.051582) can0 33B#0000003F00000000
(1789541810.051802) can0 323#0000000000001FAD
(1789541810.052048) can0 324#0000004041000000
(1789541810.052307) can0 33D#0000102000280000
(1789541810.052539) can0 3B7#00000000000D8A87
(1789541810.052797) can0 491#0000000000000000
(1789541810.151610) can0 33B#0000003F00000000
(1789541810.151826) can0 323#0000000000001FAD
(1789541810.152075) can0 324#0000004041000000
(1789541810.152314) can0 33D#0000102000280000
(1789541810.152561) can0 3B7#00000000000E8987
(1789541810.152801) can0 491#0000000000000000
(1789541810.251571) can0 33B#0000003F00000000
(1789541810.251790) can0 323#0000000000000000
(1789541810.252027) can0 324#0000004041000000
(1789541810.252278) can0 33D#0000102000280000
(1789541810.252515) can0 3B7#00000000000F8887
(1789541810.252769) can0 491#0000000000000000
(1789541810.351632) can0 33B#0000003F00000000
(1789541810.351852) can0 323#0000000000000000
(1789541810.352091) can0 324#0000004041000000
(1789541810.352338) can0 33D#0000102000280000
(1789541810.352587) can0 3B7#0000000000008787
(1789541810.352847) can0 491#0000000000000000
(1789541810.451571) can0 33B#0000003F00000000
(1789541810.451796) can0 323#0000000000000000
(1789541810.452076) can0 324#0000004041000000
(1789541810.452296) can0 33D#0000102000280000
(1789541810.452542) can0 3B7#0000000000018687
(1789541810.452779) can0 491#0000000000000000
(1789541810.551589) can0 33B#0000003F00000000
(1789541810.551784) can0 323#0000000000000000
(1789541810.552042) can0 324#0000004041000000
(1789541810.552292) can0 33D#0000102000280000
(1789541810.552558) can0 3B7#0000000000028587
(1789541810.552778) can0 491#0000000000000000
(1789541810.651628) can0 33B#0000003F00000000
(1789541810.651851) can0 323#0000000000000000
(1789541810.652092) can0 324#0000004041000000
(1789541810.652332) can0 33D#0000102000280000
(1789541810.652581) can0 3B7#0000000000038487
(1789541810.652821) can0 491#0000000000000000
(1789541810.751615) can0 33B#0000003F00000000
(1789541810.751809) can0 323#0000000000001D65
(1789541810.752039) can0 324#0000004041000000
(1789541810.752287) can0 33D#0000102000280000
(1789541810.752584) can0 3B7#0000000000048387
(1789541810.752769) can0 491#0000000000000000
(1789541810.851624) can0 33B#0000003F00000000
(1789541810.851790) can0 323#0000000000001D65
(1789541810.852040) can0 324#0000004041000000
(1789541810.852278) can0 33D#0000102000280000
(1789541810.852597) can0 3B7#0000000000058287
(1789541810.852788) can0 491#0000000000000000
(1789541810.951664) can0 33B#0000003F00000000
(1789541810.951876) can0 323#0000000000001D65
(1789541810.952121) can0 324#0000004041000000
(1789541810.952364) can0 33D#0000102000280000
(1789541810.952610) can0 3B7#0000000000068187
(1789541810.952847) can0 491#0000000000000000
(1789541811.051677) can0 33B#0000003F00000000
(1789541811.051892) can0 323#0000000000001D65
(1789541811.052127) can0 324#0000004041000000
(1789541811.052377) can0 33D#0000102000280000
(1789541811.052623) can0 3B7#0000000000078087
(1789541811.052862) can0 491#0000000000000000
(1789541811.151767) can0 33B#0000003F00000000
(1789541811.151980) can0 323#0000000000001D65
(1789541811.152219) can0 324#0000004041000000
(1789541811.152486) can0 33D#0000102000280000
(1789541811.152735) can0 3B7#0000000000088F87
(1789541811.152965) can0 491#0000000000000000
(1789541811.251687) can0 33B#0000003F00000000
(1789541811.251893) can0 323#0000000000001FAD
(1789541811.252150) can0 324#0000004041000000
(1789541811.252376) can0 33D#0000102000280000
(1789541811.252652) can0 3B7#0000000000098E87
(1789541811.252883) can0 491#0000000000000000
(1789541811.351599) can0 33B#0000003F00000000
(1789541811.351818) can0 323#0000000000001FAD
(1789541811.352049) can0 324#0000004041000000
(1789541811.352310) can0 33D#0000102000280000
(1789541811.352538) can0 3B7#00000000000A8D87
(1789541811.352805) can0 491#0000000000000000
(1789541811.451709) can0 33B#0000003F00000000
(1789541811.451895) can0 323#0000000000001FAD
(1789541811.452130) can0 324#0000004041000000
(1789541811.452364) can0 33D#0000102000280000
(1789541811.452684) can0 3B7#00000000000B8C87
(1789541811.452854) can0 491#0000000000000000
(1789541811.551726) can0 33B#0000003F00000000
(1789541811.551899) can0 323#0000000000001FAD
(1789541811.552133) can0 324#0000004041000000
(1789541811.552400) can0 33D#0000102000280000
(1789541811.552693) can0 3B7#00000000000C8B87
(1789541811.552882) can0 491#0000000000000000
(1789541811.651735) can0 33B#0000003F00000000
(1789541811.651901) can0 323#0000000000001FAD
(1789541811.652137) can0 324#0000004041000000
(1789541811.652384) can0 33D#0000102000280000
(1789541811.652627) can0 3B7#00000000000D8A87
(1789541811.652868) can0 491#0000000000000000
(1789541811.751620) can0 33B#0000003F00000000
(1789541811.751841) can0 323#0000000000000000
(1789541811.752076) can0 324#0000004041000000
(1789541811.752316) can0 33D#0000102000280000
(1789541811.752593) can0 3B7#00000000000E8987
(1789541811.752814) can0 491#0000000000000000
(1789541811.851685) can0 33B#0000003F00000000
(1789541811.851908) can0 323#0000000000000000
(1789541811.852152) can0 324#0000004041000000
(1789541811.852391) can0 33D#0000102000280000
(1789541811.852643) can0 3B7#00000000000F8887
(1789541811.852885) can0 491#0000000000000000
(1789541811.951629) can0 33B#0000003F00000000
(1789541811.951855) can0 323#0000000000000000
(1789541811.952079) can0 324#0000004041000000
(1789541811.952351) can0 33D#0000102000280000
(1789541811.952592) can0 3B7#0000000000008787
(1789541811.952848) can0 491#0000000000000000
(1789541812.051622) can0 33B#0000003F00000000
(1789541812.051839) can0 323#0000000000000000
(1789541812.052104) can0 324#0000004041000000
(1789541812.052341) can0 33D#0000102000280000
(1789541812.052577) can0 3B7#0000000000018687
(1789541812.052832) can0 491#0000000000000000
(1789541812.151802) can0 33B#0000003F00000000
(1789541812.151958) can0 323#0000000000000000
(1789541812.152202) can0 324#0000004041000000
(1789541812.152445) can0 33D#0000102000280000
(1789541812.152693) can0 3B7#0000000000028587
(1789541812.152947) can0 491#0000000000000000
(1789541812.251636) can0 33B#0000003F00000000
(1789541812.251831) can0 323#0000000000001D65
(1789541812.252092) can0 324#0000004041000000
(1789541812.252329) can0 33D#0000102000280000
(1789541812.252573) can0 3B7#0000000000038487
(1789541812.252836) can0 491#0000000000000000
(1789541812.351666) can0 33B#0000003F00000000
(1789541812.351864) can0 323#0000000000001D65
(1789541812.352125) can0 324#0000004041000000
(1789541812.352366) can0 33D#0000102000280000
(1789541812.352615) can0 3B7#0000000000048387
(1789541812.352862) can0 491#0000000000000000
(1789541812.451725) can0 33B#0000003F00000000
(1789541812.451923) can0 323#0000000000001D65
(1789541812.452193) can0 324#0000004041000000
(1789541812.452426) can0 33D#0000102000280000
(1789541812.452660) can0 3B7#0000000000058287
(1789541812.452916) can0 491#0000000000000000
(1789541812.551664) can0 33B#0000003F00000000
(1789541812.551872) can0 323#0000000000001D65
(1789541812.552138) can0 324#0000004041000000
(1789541812.552370) can0 33D#0000102000280000
(1789541812.552614) can0 3B7#0000000000068187
(1789541812.552861) can0 491#0000000000000000
(1789541812.651688) can0 33B#0000003F00000000
(1789541812.651916) can0 323#0000000000001D65
(1789541812.652151) can0 324#0000004041000000
(1789541812.652384) can0 33D#0000102000280000
(1789541812.652639) can0 3B7#0000000000078087
(1789541812.652902) can0 491#0000000000000000
(1789541812.751651) can0 33B#0000003F00000000
(1789541812.751860) can0 323#0000000000001FAD
(1789541812.752102) can0 324#0000004041000000
(1789541812.752357) can0 33D#0000102000280000
(1789541812.752602) can0 3B7#0000000000088F87
(1789541812.752854) can0 491#0000000000000000
(1789541812.851644) can0 33B#0000003F00000000
(1789541812.851870) can0 323#0000000000001FAD
(1789541812.852115) can0 324#0000004041000000
(1789541812.852365) can0 33D#0000102000280000
(1789541812.852614) can0 3B7#0000000000098E87
(1789541812.852864) can0 491#0000000000000000
(1789541812.951661) can0 33B#0000003F00000000
(1789541812.951889) can0 323#0000000000001FAD
(1789541812.952129) can0 324#0000004041000000
(1789541812.952359) can0 33D#0000102000280000
(1789541812.952604) can0 3B7#00000000000A8D87
(1789541812.952876) can0 491#0000000000000000
(1789541813.051710) can0 33B#0000003F00000000
(1789541813.051937) can0 323#0000000000001FAD
(1789541813.052171) can0 324#0000004041000000
(1789541813.052431) can0 33D#0000102000280000
(1789541813.052658) can0 3B7#00000000000B8C87
(1789541813.052917) can0 491#0000000000000000
(1789541813.151808) can0 33B#0000003F00000000
(1789541813.152028) can0 323#0000000000001FAD
(1789541813.152279) can0 324#0000004041000000
(1789541813.152528) can0 33D#0000102000280000
(1789541813.152752) can0 3B7#00000000000C8B87
(1789541813.153029) can0 491#0000000000000000
(1789541813.251738) can0 33B#0000003F00000000
(1789541813.251956) can0 323#0000000000000000
(1789541813.252197) can0 324#0000004041000000
(1789541813.252446) can0 33D#0000102000280000
(1789541813.252687) can0 3B7#00000000000D8A87
(1789541813.252936) can0 491#0000000000000000
(1789541813.351664) can0 33B#0000003F00000000
(1789541813.351931) can0 323#0000000000000000
(1789541813.352134) can0 324#0000004041000000
(1789541813.352386) can0 33D#0000102000280000
(1789541813.352624) can0 3B7#00000000000E8987
(1789541813.352927) can0 491#0000000000000000
(1789541813.451731) can0 33B#0000003F00000000
(1789541813.451943) can0 323#0000000000000000
(1789541813.452193) can0 324#0000004041000000
(1789541813.452443) can0 33D#0000102000280000
(1789541813.452674) can0 3B7#00000000000F8887
(1789541813.452940) can0 491#0000000000000000
(1789541813.551759) can0 33B#0000003F00000000
(1789541813.551957) can0 323#0000000000000000
(1789541813.552132) can0 324#0000004041000000
(1789541813.552377) can0 33D#0000102000280000
(1789541813.552641) can0 3B7#0000000000008787
(1789541813.552878) can0 491#0000000000000000
(1789541813.651746) can0 33B#0000003F00000000
(1789541813.651972) can0 323#0000000000000000
(1789541813.652204) can0 324#0000004041000000
(1789541813.652444) can0 33D#0000102000280000
(1789541813.652694) can0 3B7#0000000000018687
(1789541813.652969) can0 491#0000000000000000
(1789541813.751681) can0 33B#0000003F00000000
(1789541813.751898) can0 323#0000000000001D65
(1789541813.752152) can0 324#0000004041000000
(1789541813.752384) can0 33D#0000102000280000
(1789541813.752629) can0 3B7#0000000000028587
(1789541813.752876) can0 491#0000000000000000
(1789541813.851759) can0 33B#0000003F00000000
(1789541813.852011) can0 323#0000000000001D65
(1789541813.852212) can0 324#0000004041000000
(1789541813.852451) can0 33D#0000102000280000
(1789541813.852690) can0 3B7#0000000000038487
(1789541813.852996) can0 491#0000000000000000
(1789541813.951706) can0 33B#0000003F00000000
(1789541813.951929) can0 323#0000000000001D65
(1789541813.952154) can0 324#0000004041000000
(1789541813.952434) can0 33D#0000102000280000
(1789541813.952660) can0 3B7#0000000000048387
(1789541813.952896) can0 491#0000000000000000
(1789541814.051753) can0 33B#0000003F00000000
(1789541814.052037) can0 323#0000000000001D65
(1789541814.052209) can0 324#0000004041000000
(1789541814.052444) can0 33D#0000102000280000
(1789541814.052713) can0 3B7#0000000000058287
(1789541814.053021) can0 491#0000000000000000
(1789541814.151743) can0 33B#0000003F00000000
(1789541814.151943) can0 323#0000000000001D65
(1789541814.152180) can0 324#0000004041000000
(1789541814.152451) can0 33D#0000102000280000
(1789541814.152687) can0 3B7#0000000000068187
(1789541814.152946) can0 491#0000000000000000
(1789541814.251714) can0 33B#0000003F00000000
(1789541814.251939) can0 323#0000000000001FAD
(1789541814.252175) can0 324#0000004041000000
(1789541814.252423) can0 33D#0000102000280000
(1789541814.252675) can0 3B7#0000000000078087
(1789541814.252905) can0 491#0000000000000000
(1789541814.351701) can0 33B#0000003F00000000
(1789541814.351914) can0 323#0000000000001FAD
(1789541814.352158) can0 324#0000004041000000
(1789541814.352408) can0 33D#0000102000280000
(1789541814.352641) can0 3B7#0000000000088F87
(1789541814.352909) can0 491#0000000000000000
(1789541814.451704) can0 33B#0000003F00000000
(1789541814.451923) can0 323#0000000000001FAD
(1789541814.452171) can0 324#0000004041000000
(1789541814.452403) can0 33D#0000102000280000
(1789541814.452655) can0 3B7#0000000000098E87
(1789541814.452896) can0 491#0000000000000000
(1789541814.551772) can0 33B#0000003F00000000
(1789541814.551917) can0 323#0000000000001FAD
(1789541814.552173) can0 324#0000004041000000
(1789541814.552407) can0 33D#0000102000280000
(1789541814.552648) can0 3B7#00000000000A8D87
(1789541814.552887) can0 491#0000000000000000
(1789541814.651756) can0 33B#0000003F00000000
(1789541814.651990) can0 323#0000000000001FAD
(1789541814.652215) can0 324#0000004041000000
(1789541814.652451) can0 33D#0000102000280000
(1789541814.652704) can0 3B7#00000000000B8C87
(1789541814.652937) can0 491#0000000000000000
(1789541814.751716) can0 33B#0000003F00000000
(1789541814.751920) can0 323#0000000000000000
(1789541814.752165) can0 324#0000004041000000
(1789541814.752428) can0 33D#0000102000280000
(1789541814.752653) can0 3B7#00000000000C8B87
(1789541814.752921) can0 491#0000000000000000
(1789541814.851758) can0 33B#0000003F00000000
(1789541814.851997) can0 323#0000000000000000
(1789541814.852236) can0 324#0000004041000000
(1789541814.852476) can0 33D#0000102000280000
(1789541814.852730) can0 3B7#00000000000D8A87
(1789541814.852974) can0 491#0000000000000000
(1789541814.951795) can0 33B#0000003F00000000
(1789541814.952026) can0 323#0000000000000000
(1789541814.952264) can0 324#0000004041000000
(1789541814.952490) can0 33D#0000102000280000
(1789541814.952746) can0 3B7#00000000000E8987
(1789541814.952987) can0 491#0000000000000000
(1789541815.051721) can0 33B#0000003F00000000
(1789541815.051937) can0 323#0000000000000000
(1789541815.052184) can0 324#0000004041000000
(1789541815.052425) can0 33D#0000102000280000
(1789541815.052682) can0 3B7#00000000000F8887
(1789541815.052916) can0 491#0000000000000000
(1789541815.151900) can0 33B#0000003F00000000
(1789541815.152168) can0 323#0000000000000000
(1789541815.152364) can0 324#0000004041000000
(1789541815.152603) can0 33D#0000102000280000
(1789541815.152849) can0 3B7#0000000000008787
(1789541815.153166) can0 491#0000000000000000
(1789541815.251729) can0 33B#0000003F00000000
(1789541815.251953) can0 323#0000000000001D65
(1789541815.252189) can0 324#0000004041000000
(1789541815.252451) can0 33D#0000102000280000
(1789541815.252682) can0 3B7#0000000000018687
(1789541815.252938) can0 491#0000000000000000
(1789541815.351736) can0 33B#0000003F00000000
(1789541815.351951) can0 323#0000000000001D65
(1789541815.352212) can0 324#0000004041000000
(1789541815.352439) can0 33D#0000102000280000
(1789541815.352681) can0 3B7#0000000000028587
(1789541815.352932) can0 491#0000000000000000
(1789541815.451793) can0 33B#0000003F00000000
(1789541815.452006) can0 323#0000000000001D65
(1789541815.452245) can0 324#0000004041000000
(1789541815.452501) can0 33D#0000102000280000
(1789541815.452737) can0 3B7#0000000000038487
(1789541815.452990) can0 491#0000000000000000
(1789541815.551753) can0 33B#0000003F00000000
(1789541815.551986) can0 323#0000000000001D65
(1789541815.552223) can0 324#0000004041000000
(1789541815.552455) can0 33D#0000102000280000
(1789541815.552712) can0 3B7#0000000000048387
(1789541815.552944) can0 491#0000000000000000
(1789541815.651844) can0 33B#0000003F00000000
(1789541815.652046) can0 323#0000000000001D65
(1789541815.652311) can0 324#0000004041000000
(1789541815.652549) can0 33D#0000102000280000
(1789541815.652800) can0 3B7#0000000000058287
(1789541815.653045) can0 491#0000000000000000
(1789541815.751797) can0 33B#0000003F00000000
(1789541815.752013) can0 323#0000000000001FAD
(1789541815.752256) can0 324#0000004041000000
(1789541815.752498) can0 33D#0000102000280000
(1789541815.752747) can0 3B7#0000000000068187
(1789541815.752998) can0 491#0000000000000000
(1789541815.851735) can0 33B#0000003F00000000
(1789541815.851947) can0 323#0000000000001FAD
(1789541815.852258) can0 324#0000004041000000
(1789541815.852454) can0 33D#0000102000280000
(1789541815.852675) can0 3B7#0000000000078087
(1789541815.852942) can0 491#0000000000000000
(1789541824.025322) can0 33B#6400007C00000000
(1789541824.025395) can0 323#0000000000000000
(1789541824.025646) can0 324#0000002828000000
(1789541824.025890) can0 33D#0000102000180000
(1789541824.026131) can0 3B7#0000000000018687
(1789541824.026382) can0 491#0000000000000000
(1789541824.125141) can0 33B#6400006500000000
(1789541824.125364) can0 323#0000000000000000
(1789541824.125595) can0 324#0000002851000000
(1789541824.125828) can0 33D#0000102000180000
(1789541824.126083) can0 3B7#0000000000028587
(1789541824.126355) can0 491#0000000000000000
(1789541824.225174) can0 33B#6400005300000000
(1789541824.225381) can0 323#0000000000000000
(1789541824.225597) can0 324#0000002F51000000
(1789541824.225859) can0 33D#0000102000180000
(1789541824.226100) can0 3B7#0000000000038487
(1789541824.226373) can0 491#0000000000000000
(1789541824.325157) can0 33B#6400004B00000000
(1789541824.325383) can0 323#0000000000000000
(1789541824.325602) can0 324#0000002F4B000000
(1789541824.325841) can0 33D#0000102000180000
(1789541824.326087) can0 3B7#0000000000048387
(1789541824.326388) can0 491#0000000000000000
(1789541824.416893) can0 29C#2800000000000000
(1789541824.416970) can0 33F#0000000028000000
(1789541824.417004) can0 394#0036000010370011
(1789541824.417122) can0 396#3B6D4E2800454545
(1789541824.417391) can0 39A#003602000FC00000
(1789541824.417653) can0 39B#3C3A820000000084
(1789541824.425239) can0 33B#6400004400000000
(1789541824.425417) can0 323#0000000000000000
(1789541824.425644) can0 324#0000002F4B000000
(1789541824.425893) can0 33D#0000102000180000
(1789541824.426143) can0 3B7#0000000000058287
(1789541824.426457) can0 491#0000000000000000
(1789541824.466829) can0 297#0121E040FFFF8000
(1789541824.466863) can0 29B#BB967002FD100000
(1789541824.516867) can0 297#0121E040FFFF8101
(1789541824.516903) can0 29B#BB967002FD100000
(1789541824.516981) can0 29C#2800000000000000
(1789541824.517072) can0 33F#0000000028000000
(1789541824.517310) can0 394#0036000010370110
(1789541824.517553) can0 396#3B6D4E2800454545
(1789541824.517791) can0 39A#003602001F800000
(1789541824.518036) can0 39B#3C3A820000000480
(1789541824.525063) can0 33B#6400004200000000
(1789541824.525311) can0 323#0000000000001D65
(1789541824.525544) can0 324#000000354B000000
(1789541824.525783) can0 33D#0000102000180000
(1789541824.526033) can0 3B7#0000000000068187
(1789541824.526292) can0 491#0000000000000000
(1789541824.566830) can0 297#0121E040FFFF8202
(1789541824.566866) can0 29B#BB967002FD100000
(1789541824.616872) can0 297#0121E040FFFF8303
(1789541824.616950) can0 29B#BB967002FD100000
(1789541824.617025) can0 29C#2800000000000000
(1789541824.617080) can0 33F#0000000028000000
(1789541824.617330) can0 394#0036000010370213
(1789541824.617574) can0 396#3B6D4E2800454545
(1789541824.617814) can0 39A#003602002F400000
(1789541824.618059) can0 39B#3C3A82000000088C
(1789541824.625072) can0 33B#6400004100000000
(1789541824.625308) can0 323#0000000000001D65
(1789541824.625547) can0 324#0000003547000000
(1789541824.625797) can0 33D#0000102000180000
(1789541824.626046) can0 3B7#0000000000078087
(1789541824.626280) can0 491#0000000000000000
(1789541824.666847) can0 297#0121E040FFFF8404
(1789541824.666899) can0 29B#BB967002FD100000
(1789541824.716872) can0 297#0121E040FFFF8505
(1789541824.716907) can0 29B#BB967002FD100000
(1789541824.716985) can0 29C#2800000000000000
(1789541824.717071) can0 33F#0000000028000000
(1789541824.717307) can0 394#0036000010370312
(1789541824.717566) can0 396#3B6D4E2800454545
(1789541824.717801) can0 39A#003602003F000000
(1789541824.718048) can0 39B#3C3A820000000C88
(1789541824.725093) can0 33B#0000004000000000
(1789541824.725319) can0 323#0000000000001D65
(1789541824.725545) can0 324#0000003547000000
(1789541824.725808) can0 33D#0000102000180000
(1789541824.726058) can0 3B7#0000000000088F87
(1789541824.726288) can0 491#0000000000000000
(1789541824.766829) can0 297#0121E040FFFF8606
(1789541824.766881) can0 29B#BB967002FD100000
(1789541824.816871) can0 297#0121E040FFFF8707
(1789541824.816900) can0 29B#BB967002FD100000
(1789541824.816981) can0 29C#2800000000000000
(1789541824.817068) can0 33F#0000000028000000
(1789541824.817329) can0 394#0036000010370415
(1789541824.817564) can0 396#3B6D4E2800454545
(1789541824.817801) can0 39A#003602004EC00000
(1789541824.818051) can0 39B#3C3A820000001094
(1789541824.825098) can0 33B#0000003F00000000
(1789541824.825330) can0 323#0000000000001D65
(1789541824.825570) can0 324#0000003847000000
(1789541824.825829) can0 33D#0000102000180000
(1789541824.826060) can0 3B7#0000000000098E87
(1789541824.826330) can0 491#0000000000000000
(1789541824.866830) can0 297#0121E040FFFF8808
(1789541824.866874) can0 29B#BB967002FD100000
(1789541824.916841) can0 297#0121E040FFFF8909
(1789541824.916871) can0 29B#BB967002FD100000
(1789541824.916946) can0 29C#2800000000000000
(1789541824.917053) can0 33F#0000000028000000
(1789541824.917285) can0 394#0036000010370514
(1789541824.917527) can0 396#3B6D4E2800454545
(1789541824.917775) can0 39A#003602005E800000
(1789541824.918015) can0 39B#3C3A820000001490
(1789541824.925157) can0 33B#0000003F00000000
(1789541824.925359) can0 323#0000000000001D65
(1789541824.925596) can0 324#0000003844000000
(1789541824.925838) can0 33D#0000102000180000
(1789541824.926094) can0 3B7#00000000000A8D87
(1789541824.926337) can0 491#0000000000000000
(1789541824.966815) can0 297#0101E040FFFF8A2A
(1789541824.966877) can0 29B#BB967002FD100000
(1789541825.016869) can0 297#0101E040FFFF8B2B
(1789541825.016895) can0 29B#BB967002FD100000
(1789541825.016975) can0 29C#2800000000000000
(1789541825.017053) can0 33F#0000000028000000
(1789541825.017281) can0 394#0036000010370617
(1789541825.017530) can0 396#3B6D4E2800454545
(1789541825.017772) can0 39A#003602006E400000
(1789541825.018023) can0 39B#3C3A82000000189C
(1789541825.025113) can0 33B#0000003F00000000
(1789541825.025348) can0 323#0000000000001D83
(1789541825.025588) can0 324#0000003844000000
(1789541825.025825) can0 33D#0000102000180000
(1789541825.026071) can0 3B7#00000000000B8C87
(1789541825.026328) can0 491#0000000000000000
(1789541825.066838) can0 297#0101E040FFFF8C2C
(1789541825.066865) can0 29B#BB967002FD100000
(1789541825.116866) can0 297#0101E040FFFF8D2D
(1789541825.116947) can0 29B#BB967002FD100000
(1789541825.116972) can0 29C#2800000000000000
(1789541825.117080) can0 33F#0000000028000040
(1789541825.117312) can0 394#0036000010370716
(1789541825.117569) can0 396#3B6D4E2800454545
(1789541825.117801) can0 39A#003602007E000000
(1789541825.118061) can0 39B#3C3A820000001C98
(1789541825.125109) can0 33B#0000003F00000000
(1789541825.125341) can0 323#0000000000001D83
(1789541825.125584) can0 324#0000003B44000000
(1789541825.125839) can0 33D#0000102000180000
(1789541825.126068) can0 3B7#00000000000C8B87
(1789541825.126306) can0 491#0000000000000000
(1789541825.166825) can0 297#0101E040FFFF8E2E
(1789541825.166860) can0 29B#BB967002FD100000
(1789541825.216831) can0 297#0101E040FFFF8F2F
(1789541825.216941) can0 29B#BB967002FD100000
(1789541825.216973) can0 29C#2800000000000000
(1789541825.217053) can0 33F#0000000028000040
(1789541825.217285) can0 394#0036000010370819
(1789541825.217532) can0 396#3B6D4E2800454545
(1789541825.217771) can0 39A#003602008DC00000
(1789541825.218019) can0 39B#3C3A8200000020A4
(1789541825.225207) can0 33B#0000003F00000000
(1789541825.225508) can0 323#0000000000001D83
(1789541825.225692) can0 324#0000003B42000000
(1789541825.225927) can0 33D#0000102000180000
(1789541825.226165) can0 3B7#00000000000D8A87
(1789541825.226414) can0 491#0000000000000000
(1789541825.266822) can0 297#0101E040FFFF8020
(1789541825.266886) can0 29B#BB967002FD100000
(1789541825.316825) can0 297#0101E040FFFF8121
(1789541825.316902) can0 29B#BB967002FD100000
(1789541825.316981) can0 29C#2800000000000000
(1789541825.317064) can0 33F#0000000028000040
(1789541825.317291) can0 394#0036000010370918
(1789541825.317543) can0 396#3B6D4E2800454545
(1789541825.317782) can0 39A#003602009D800000
(1789541825.318033) can0 39B#3C3A8200000024A0
(1789541825.325112) can0 33B#0000003F00000000
(1789541825.325359) can0 323#0000000000001D83
(1789541825.325589) can0 324#0000003B42000000
(1789541825.325833) can0 33D#0000102000180000
(1789541825.326073) can0 3B7#00000000000E8987
(1789541825.326327) can0 491#0000000000000000
(1789541825.366833) can0 297#0101E040FFFF8222
(1789541825.366875) can0 29B#BB967002FD100000
(1789541825.416879) can0 297#0101E040FFFF8323
(1789541825.416952) can0 29B#BB967002FD100000
(1789541825.416990) can0 29C#2800000000000000
(1789541825.417084) can0 33F#0000000028000040
(1789541825.417330) can0 394#0036000010370A1B
(1789541825.417584) can0 396#3B6D4E2800454545
(1789541825.417822) can0 39A#00360200AD400000
(1789541825.418067) can0 39B#3C3A8200000028AC
(1789541825.425148) can0 33B#0000003F00000000
(1789541825.425378) can0 323#0000000000001D83
(1789541825.425627) can0 324#0000003C42000000
(1789541825.425875) can0 33D#0000102000180000
(1789541825.426108) can0 3B7#00000000000F8887
(1789541825.426350) can0 491#0000000000000000
(1789541825.466843) can0 297#0101E040FFFF8424
(1789541825.466881) can0 29B#BB967002FD100000
(1789541825.516861) can0 297#0101E040FFFF8525
(1789541825.516897) can0 29B#BB967002FD100000
(1789541825.516976) can0 29C#2800000000000000
(1789541825.517060) can0 33F#0000000028000040
(1789541825.517288) can0 394#0036000010370B1A
(1789541825.517533) can0 396#3B6D4E2800454545
(1789541825.517786) can0 39A#00360200BD000000
(1789541825.518040) can0 39B#3C3A820000002CA8
(1789541825.525132) can0 33B#0000003F00000000
(1789541825.525355) can0 323#0000000000000000
(1789541825.525595) can0 324#0000003C41000000
(1789541825.525844) can0 33D#0000102000180000
(1789541825.526084) can0 3B7#0000000000008787
(1789541825.526328) can0 491#0000000000000000
(1789541825.566821) can0 297#0101E040FFFF8626
(1789541825.566872) can0 29B#BB967002FD100000
(1789541825.616875) can0 297#0101E040FFFF8727
(1789541825.616912) can0 29B#BB967002FD100000
(1789541825.616989) can0 29C#2800000000000000
(1789541825.617068) can0 33F#0000000028000040
(1789541825.617311) can0 394#0036000010370C1D
(1789541825.617557) can0 396#3B6D4E2800454545
(1789541825.617800) can0 39A#00360200CCC00000
(1789541825.618052) can0 39B#3C3A8200000030B4
(1789541825.625132) can0 33B#0000003F00000000
(1789541825.625360) can0 323#0000000000000000
(1789541825.625597) can0 324#0000003C41000000
(1789541825.625846) can0 33D#0000102000180000
(1789541825.626091) can0 3B7#0000000000018687
(1789541825.626328) can0 491#0000000000000000
(1789541825.666825) can0 297#0101E040FFFF8828
(1789541825.666861) can0 29B#BB967002FD100000
(1789541825.716854) can0 297#0101E040FFFF8929
(1789541825.716932) can0 29B#BB967002FD100000
(1789541825.716974) can0 29C#2800000000000000
(1789541825.717069) can0 33F#0000000028000040
(1789541825.717317) can0 394#0036000010370D1C
(1789541825.717577) can0 396#3B6D4E2800454545
(1789541825.717801) can0 39A#00360200DC800000
(1789541825.718050) can0 39B#3C3A8200000034B0
(1789541825.725203) can0 33B#0000003F00000000
(1789541825.725443) can0 323#0000000000000000
(1789541825.725689) can0 324#0000003D41000000
(1789541825.725942) can0 33D#0000102000180000
(1789541825.726161) can0 3B7#0000000000028587
(1789541825.726423) can0 491#0000000000000000
(1789541825.766831) can0 297#0101E040FFFF8A2A
(1789541825.766876) can0 29B#BB967002FD100000
(1789541825.816859) can0 297#0101E040FFFF8B2B
(1789541825.816897) can0 29B#BB967002FD100000
(1789541825.816977) can0 29C#2800000000000000
(1789541825.817072) can0 33F#0000000028000040
(1789541825.817329) can0 394#0036000010370E1F
(1789541825.817578) can0 396#3B6D4E2800454545
(1789541825.817807) can0 39A#00360200EC400000
(1789541825.818053) can0 39B#3C3A8200000038BC
(1789541825.825130) can0 33B#0000003F00000000
(1789541825.825367) can0 323#0000000000000000
(1789541825.825607) can0 324#0000003D40000000
(1789541825.825855) can0 33D#0000102000180000
(1789541825.826099) can0 3B7#0000000000038487
(1789541825.826339) can0 491#0000000000000000
(1789541825.866839) can0 297#0101E040FFFF8C2C
(1789541825.866886) can0 29B#BB967002FD100000
(1789541825.916902) can0 297#0101E040FFFF8D2D
(1789541825.916935) can0 29B#BB967002FD100000
(1789541825.917014) can0 29C#2800000000000000
(1789541825.917083) can0 33F#0000000028000040
(1789541825.917322) can0 394#0036000010370F1E
(1789541825.917588) can0 396#3B6D4E2800454545
(1789541825.917817) can0 39A#00360200FC000000
(1789541825.918062) can0 39B#3C3A820000003CB8
(1789541825.925364) can0 33B#0000003F00000000
(1789541825.925611) can0 323#0000000000000000
(1789541825.925860) can0 324#0000003D40000000
(1789541825.926100) can0 33D#0000102000180000
(1789541825.926345) can0 3B7#0000000000048387
(1789541825.926592) can0 491#0000000000000000
(1789541825.966855) can0 297#0101E040FFFF8E2E
(1789541825.966898) can0 29B#BB967002FD100000
(1789541826.016816) can0 297#0101E040FFFF8F2F
(1789541826.016929) can0 29B#BB967002FD100000
(1789541826.016982) can0 29C#2800000000000000
(1789541826.017055) can0 33F#0000000028000040
(1789541826.017285) can0 394#0036000010370011
(1789541826.017527) can0 396#3B6D4E2800454545
(1789541826.017781) can0 39A#003602000BC00000
(1789541826.018015) can0 39B#3C3A820000000084
(1789541826.025146) can0 33B#0000003F00000000
(1789541826.025374) can0 323#0000000000001D65
(1789541826.025613) can0 324#0000003E40000000
(1789541826.025864) can0 33D#0000102000180000
(1789541826.026107) can0 3B7#0000000000058287
(1789541826.026364) can0 491#0000000000000000
(1789541826.066878) can0 297#0101E040FFFF8020
(1789541826.066922) can0 29B#BB967002FD100000
(1789541826.116827) can0 297#0101E040FFFF8121
(1789541826.116912) can0 29B#BB967002FD100000
(1789541826.116989) can0 29C#2800000000000000
(1789541826.117073) can0 33F#0000000028000040
(1789541826.117301) can0 394#0036000010370110
(1789541826.117539) can0 396#3B6D4E2800454545
(1789541826.117783) can0 39A#003602001B800000
(1789541826.118038) can0 39B#3C3A820000000480
(1789541826.125247) can0 33B#0000003F00000000
(1789541826.125452) can0 323#0000000000001D65
(1789541826.125697) can0 324#0000003E40000000
(1789541826.125946) can0 33D#0000102000180000
(1789541826.126189) can0 3B7#0000000000068187
(1789541826.126430) can0 491#0000000000000000
(1789541826.166842) can0 297#0101E040FFFF8222
(1789541826.166884) can0 29B#BB967002FD100000
(1789541826.216831) can0 297#0101E040FFFF8323
(1789541826.216942) can0 29B#BB967002FD100000
(1789541826.217020) can0 29C#2800000000000000
(1789541826.217057) can0 33F#0000000028000040
(1789541826.217293) can0 394#0036000010370213
(1789541826.217546) can0 396#3B6D4E2800454545
(1789541826.217788) can0 39A#003602002B400000
(1789541826.218026) can0 39B#3C3A82000000088C
(1789541826.225145) can0 33B#0000003F00000000
(1789541826.225383) can0 323#0000000000001D65
(1789541826.225639) can0 324#0000003E40000000
(1789541826.225873) can0 33D#0000102000180000
(1789541826.226109) can0 3B7#0000000000078087
(1789541826.226355) can0 491#0000000000000000
(1789541826.266825) can0 297#0101E040FFFF8424
(1789541826.266870) can0 29B#BB967002FD100000
(1789541826.316832) can0 297#0101E040FFFF8525
(1789541826.316909) can0 29B#BB967002FD100000
(1789541826.316941) can0 29C#2800000000000000
(1789541826.317073) can0 33F#0000000028000040
(1789541826.317294) can0 394#0036000010370312
(1789541826.317537) can0 396#3B6D4E2800454545
(1789541826.317784) can0 39A#003602003B000000
(1789541826.318021) can0 39B#3C3A820000000C88
(1789541826.325158) can0 33B#0000003F00000000
(1789541826.325385) can0 323#0000000000001D65
(1789541826.325652) can0 324#0000003F40000000
(1789541826.325882) can0 33D#0000102000180000
(1789541826.326120) can0 3B7#0000000000088F87
(1789541826.326377) can0 491#0000000000000000
(1789541826.366849) can0 297#0101E040FFFF8626
(1789541826.366899) can0 29B#BB967002FD100000
(1789541826.416870) can0 297#0101E040FFFF8727
(1789541826.416898) can0 29B#BB967002FD100000
(1789541826.416978) can0 29C#2800000000000000
(1789541826.417074) can0 33F#0000000028000040
(1789541826.417308) can0 394#0036000010370415
(1789541826.417552) can0 396#3B6D4E2800454545
(1789541826.417792) can0 39A#003602004AC00000
(1789541826.418035) can0 39B#3C3A820000001094
(1789541826.425184) can0 33B#0000003F00000000
(1789541826.425416) can0 323#0000000000001D65
(1789541826.425660) can0 324#0000003F40000000
(1789541826.425916) can0 33D#0000102000180000
(1789541826.426150) can0 3B7#0000000000098E87
(1789541826.426423) can0 491#0000000000000000
(1789541826.466836) can0 297#0101E040FFFF8828
(1789541826.466885) can0 29B#BB967002FD100000
(1789541826.516901) can0 297#0101E040FFFF8929
(1789541826.516924) can0 29B#BB967002FD100000
(1789541826.517003) can0 29C#2800000000000000
(1789541826.517081) can0 33F#0000000028000040
(1789541826.517337) can0 394#0036000010370514
(1789541826.517578) can0 396#3B6D4E2800454545
(1789541826.517816) can0 39A#003602005A800000
(1789541826.518058) can0 39B#3C3A820000001490
(1789541826.525144) can0 33B#0000003F00000000
(1789541826.525373) can0 323#0000000000000000
(1789541826.525678) can0 324#0000003F40000000
(1789541826.525876) can0 33D#0000102000180000
(1789541826.526106) can0 3B7#00000000000A8D87
(1789541826.526369) can0 491#0000000000000000
(1789541826.566837) can0 297#0101E040FFFF8A2A
(1789541826.566904) can0 29B#BB967002FD100000
(1789541826.616865) can0 297#0101E040FFFF8B2B
(1789541826.616943) can0 29B#BB967002FD100000
(1789541826.616978) can0 29C#2800000000000000
(1789541826.617075) can0 33F#0000000028000040
(1789541826.617324) can0 394#0036000010370617
(1789541826.617561) can0 396#3B6D4E2800454545
(1789541826.617807) can0 39A#003602006A400000
(1789541826.618062) can0 39B#3C3A82000000189C
(1789541826.625215) can0 33B#0000003F00000000
(1789541826.625476) can0 323#0000000000000000
(1789541826.625713) can0 324#0000003F40000000
(1789541826.625961) can0 33D#0000102000180000
(1789541826.626184) can0 3B7#00000000000B8C87
(1789541826.626445) can0 491#0000000000000000
(1789541826.666830) can0 297#0101E040FFFF8C2C
(1789541826.666886) can0 29B#BB967002FD100000
(1789541826.716874) can0 297#0101E040FFFF8D2D
(1789541826.716950) can0 29B#BB967002FD100000
(1789541826.716987) can0 29C#2800000000000000
(1789541826.717092) can0 33F#0000000028000040
(1789541826.717336) can0 394#0036000010370716
(1789541826.717582) can0 396#3B6D4E2800454545
(1789541826.717820) can0 39A#003602007A000000
(1789541826.718060) can0 39B#3C3A820000001C98
(1789541826.725180) can0 33B#0000003F00000000
(1789541826.725414) can0 323#0000000000000000
(1789541826.725697) can0 324#0000003F40000000
(1789541826.725893) can0 33D#0000102000180000
(1789541826.726146) can0 3B7#00000000000C8B87
(1789541826.726383) can0 491#0000000000000000
(1789541826.766844) can0 297#0101E040FFFF8E2E
(1789541826.766876) can0 29B#BB967002FD100000
(1789541826.816866) can0 297#0101E040FFFF8F2F
(1789541826.816905) can0 29B#BB967002FD100000
(1789541826.816982) can0 29C#2800000000000000
(1789541826.817081) can0 33F#0000000028000040
(1789541826.817335) can0 394#0036000010370819
(1789541826.817567) can0 396#3B6D4E2800454545
(1789541826.817818) can0 39A#0036020089C00000
(1789541826.818068) can0 39B#3C3A8200000020A4
(1789541826.825226) can0 33B#0000003F00000000
(1789541826.825463) can0 323#0000000000000000
(1789541826.825712) can0 324#0000003F41000000
(1789541826.825959) can0 33D#0000102000180000
(1789541826.826196) can0 3B7#00000000000D8A87
(1789541826.826462) can0 491#0000000000000000
(1789541826.866842) can0 297#0101E040FFFF8020
(1789541826.866888) can0 29B#BB967002FD100000
(1789541826.916863) can0 297#0101E040FFFF8121
(1789541826.916903) can0 29B#BB967002FD100000
(1789541826.916983) can0 29C#2800000000000000
(1789541826.917064) can0 33F#0000000028000040
(1789541826.917300) can0 394#0036000010370918
(1789541826.917544) can0 396#3B6D4E2800454545
(1789541826.917790) can0 39A#0036020099800000
(1789541826.918041) can0 39B#3C3A8200000024A0
(1789541826.925251) can0 33B#0000003F00000000
(1789541826.925488) can0 323#0000000000000000
(1789541826.925752) can0 324#0000003F41000000
(1789541826.925972) can0 33D#0000102000180000
(1789541826.926226) can0 3B7#00000000000E8987
(1789541826.926475) can0 491#0000000000000000
(1789541826.966840) can0 297#0101E040FFFF8222
(1789541826.966886) can0 29B#BB967002FD100000
(1789541827.016868) can0 297#0101E040FFFF8323
(1789541827.016906) can0 29B#BB967002FD100000
(1789541827.016986) can0 29C#2800000000000000
(1789541827.017080) can0 33F#0000000028000040
(1789541827.017306) can0 394#0036000010370A1B
(1789541827.017547) can0 396#3B6D4E2800454545
(1789541827.017799) can0 39A#00360200A9400000
(1789541827.018038) can0 39B#3C3A8200000028AC
(1789541827.025176) can0 33B#0000003F00000000
(1789541827.025391) can0 323#0000000000001D65
(1789541827.025653) can0 324#0000003F41000000
(1789541827.025893) can0 33D#0000102000280000
(1789541827.026141) can0 3B7#00000000000F8887
(1789541827.026384) can0 491#0000000000000000
(1789541827.066843) can0 297#0101E040FFFF8424
(1789541827.066879) can0 29B#BB967002FD100000
(1789541827.116876) can0 297#0101E040FFFF8525
(1789541827.116912) can0 29B#BB967002FD100000
(1789541827.116992) can0 29C#2800000000000000
(1789541827.117076) can0 33F#0000000028000040
(1789541827.117305) can0 394#0036000010370B1A
(1789541827.117547) can0 396#3B6D4E2800454545
(1789541827.117790) can0 39A#00360200B9000000
(1789541827.118040) can0 39B#3C3A820000002CA8
(1789541827.125187) can0 33B#0000003F00000000
(1789541827.125423) can0 323#0000000000001D65
(1789541827.125662) can0 324#0000003F41000000
(1789541827.125916) can0 33D#0000102000280000
(1789541827.126153) can0 3B7#0000000000008787
(1789541827.126423) can0 491#0000000000000000
(1789541827.166841) can0 297#0101E040FFFF8626
(1789541827.166890) can0 29B#BB967002FD100000
(1789541827.216891) can0 297#0101E040FFFF8727
(1789541827.216929) can0 29B#BB967002FD100000
(1789541827.217010) can0 29C#2800000000000000
(1789541827.217097) can0 33F#0000000028000040
(1789541827.217344) can0 394#0036000010370C1D
(1789541827.217590) can0 396#3B6D4E2800454545
(1789541827.217836) can0 39A#00360200C8C00000
(1789541827.218077) can0 39B#3C3A8200000030B4
(1789541827.225174) can0 33B#0000003F00000000
(1789541827.225388) can0 323#0000000000001D65
(1789541827.225650) can0 324#0000003F41000000
(1789541827.225900) can0 33D#0000102000280000
(1789541827.226140) can0 3B7#0000000000018687
(1789541827.226436) can0 491#0000000000000000
(1789541827.266854) can0 297#0101E040FFFF8828
(1789541827.266909) can0 29B#BB967002FD100000
(1789541827.316860) can0 297#0101E040FFFF8929
(1789541827.316937) can0 29B#BB967002FD100000
(1789541827.316977) can0 29C#2800000000000000
(1789541827.317101) can0 33F#0000000028000040
(1789541827.317325) can0 394#0036000010370D1C
(1789541827.317572) can0 396#3B6D4E2800454545
(1789541827.317816) can0 39A#00360200D8800000
(1789541827.318064) can0 39B#3C3A8200000034B0
(1789541827.325187) can0 33B#0000003F00000000
(1789541827.325414) can0 323#0000000000001D65
(1789541827.325653) can0 324#0000003F41000000
(1789541827.325900) can0 33D#0000102000280000
(1789541827.326153) can0 3B7#0000000000028587
(1789541827.326408) can0 491#0000000000000000
(1789541827.366870) can0 297#0101E040FFFF8A2A
(1789541827.366921) can0 29B#BB967002FD100000
(1789541827.416911) can0 297#0101E040FFFF8B2B
(1789541827.416989) can0 29B#BB967002FD100000
(1789541827.417033) can0 29C#2800000000000000
(1789541827.417133) can0 33F#0000000028000040
(1789541827.417386) can0 394#0036000010370E1F
(1789541827.417618) can0 396#3B6D4E2800454545
(1789541827.417866) can0 39A#00360200E8400000
(1789541827.418110) can0 39B#3C3A8200000038BC
(1789541827.425289) can0 33B#0000003F00000000
(1789541827.425497) can0 323#0000000000001D65
(1789541827.425789) can0 324#0000003F41000000
(1789541827.425995) can0 33D#0000102000280000
(1789541827.426246) can0 3B7#0000000000038487
(1789541827.426485) can0 491#0000000000000000
(1789541827.466894) can0 297#0101E040FFFF8C2C
(1789541827.466940) can0 29B#BB967002FD100000
(1789541827.516882) can0 297#0101E040FFFF8D2D
(1789541827.516959) can0 29B#BB967002FD100000
(1789541827.517039) can0 29C#2800000000000000
(1789541827.517122) can0 33F#0000000028000040
(1789541827.517353) can0 394#0036000010370F1E
(1789541827.517598) can0 396#3B6D4E2800454545
(1789541827.517842) can0 39A#00360200F8000000
(1789541827.518089) can0 39B#3C3A820000003CB8
(1789541827.525283) can0 33B#0000003F00000000
(1789541827.525493) can0 323#0000000000001FAD
(1789541827.525804) can0 324#0000003F41000000
(1789541827.525986) can0 33D#0000102000280000
(1789541827.526225) can0 3B7#0000000000048387
(1789541827.526472) can0 491#0000000000000000
(1789541827.566812) can0 297#0101E040FFFF8E2E
(1789541827.566905) can0 29B#BB967002FD100000
(1789541827.616820) can0 297#0101E040FFFF8F2F
(1789541827.616976) can0 29B#BB967002FD100000
(1789541827.617024) can0 29C#2800000000000000
(1789541827.617100) can0 33F#0000000028000040
(1789541827.617300) can0 394#0036000010370011
(1789541827.617540) can0 396#3B6D4E2800454545
(1789541827.617822) can0 39A#0036020007C00000
(1789541827.618021) can0 39B#3C3A820000000084
(1789541827.625200) can0 33B#0000003F00000000
(1789541827.625417) can0 323#0000000000001FAD
(1789541827.625679) can0 324#0000003F41000000
(1789541827.625919) can0 33D#0000102000280000
(1789541827.626165) can0 3B7#0000000000058287
(1789541827.626418) can0 491#0000000000000000
(1789541827.666841) can0 297#0101E040FFFF8020
(1789541827.666925) can0 29B#BB967002FD100000
(1789541827.716829) can0 297#0101E040FFFF8121
(1789541827.716952) can0 29B#BB967002FD100000
(1789541827.717029) can0 29C#2800000000000000
(1789541827.717072) can0 33F#0000000028000040
(1789541827.717301) can0 394#0036000010370110
(1789541827.717550) can0 396#3B6D4E2800454545
(1789541827.717827) can0 39A#0036020017800000
(1789541827.718023) can0 39B#3C3A820000000480
(1789541827.725198) can0 33B#0000003F00000000
(1789541827.725409) can0 323#0000000000001FAD
(1789541827.725677) can0 324#0000003F41000000
(1789541827.725927) can0 33D#0000102000280000
(1789541827.726147) can0 3B7#0000000000068187
(1789541827.726417) can0 491#0000000000000000
(1789541827.766838) can0 297#0101E040FFFF8222
(1789541827.766932) can0 29B#BB967002FD100000
(1789541827.816841) can0 297#0101E040FFFF8323
(1789541827.816921) can0 29B#BB967002FD100000
(1789541827.816962) can0 29C#2800000000000000
(1789541827.817089) can0 33F#0000000028000040
(1789541827.817293) can0 394#0036000010370213
(1789541827.817539) can0 396#3B6D4E2800454545
(1789541827.817844) can0 39A#0036020027400000
(1789541827.818028) can0 39B#3C3A82000000088C
(1789541827.825262) can0 33B#0000003F00000000
(1789541827.825501) can0 323#0000000000001FAD
(1789541827.825739) can0 324#0000003F41000000
(1789541827.825990) can0 33D#0000102000280000
(1789541827.826230) can0 3B7#0000000000078087
(1789541827.826480) can0 491#0000000000000000
(1789541827.866850) can0 297#0101E040FFFF8424
(1789541827.866894) can0 29B#BB967002FD100000
(1789541827.916855) can0 297#0101E040FFFF8525
(1789541827.916935) can0 29B#BB967002FD100000
(1789541827.916974) can0 29C#2800000000000000
(1789541827.917100) can0 33F#0000000028000040
(1789541827.917291) can0 394#0036000010370312
(1789541827.917559) can0 396#3B6D4E2800454545
(1789541827.917853) can0 39A#0036020037000000
(1789541827.918050) can0 39B#3C3A820000000C88
(1789541827.925323) can0 33B#0000003F00000000
(1789541827.925553) can0 323#0000000000001FAD
(1789541827.925855) can0 324#0000003F41000000
(1789541827.926052) can0 33D#0000102000280000
(1789541827.926302) can0 3B7#0000000000088F87
(1789541827.926543) can0 491#0000000000000000
(1789541827.966863) can0 297#0101E040FFFF8626
(1789541827.966915) can0 29B#BB967002FD100000
(1789541828.016906) can0 297#0101E040FFFF8727
(1789541828.016946) can0 29B#BB967002FD100000
(1789541828.016985) can0 29C#2800000000000000
(1789541828.017115) can0 33F#0000000028000040
(1789541828.017339) can0 394#0036000010370415
(1789541828.017570) can0 396#3B6D4E2800454545
(1789541828.017866) can0 39A#0036020046C00000
(1789541828.018053) can0 39B#3C3A820000001094
(1789541828.025200) can0 33B#0000003F00000000
(1789541828.025427) can0 323#0000000000000000
(1789541828.025686) can0 324#0000003F41000000
(1789541828.025926) can0 33D#0000102000280000
(1789541828.026177) can0 3B7#0000000000098E87
(1789541828.026421) can0 491#0000000000000000
(1789541828.066878) can0 297#0101E040FFFF8828
(1789541828.066921) can0 29B#BB967002FD100000
(1789541828.116884) can0 297#0101E040FFFF8929
(1789541828.117009) can0 29B#BB967002FD100000
(1789541828.117038) can0 29C#2800000000000000
(1789541828.117083) can0 33F#0000000028000040
(1789541828.117288) can0 394#0036000010370514
(1789541828.117537) can0 396#3B6D4E2800454545
(1789541828.117777) can0 39A#0036020056800000
(1789541828.118034) can0 39B#3C3A820000001490
(1789541828.125272) can0 33B#0000003F00000000
(1789541828.125510) can0 323#0000000000000000
(1789541828.125759) can0 324#0000003F41000000
(1789541828.126011) can0 33D#0000102000280000
(1789541828.126243) can0 3B7#00000000000A8D87
(1789541828.126496) can0 491#0000000000000000
(1789541828.166889) can0 297#0101E040FFFF8A2A
(1789541828.166946) can0 29B#BB967002FD100000
(1789541828.216851) can0 297#0101E040FFFF8B2B
(1789541828.216930) can0 29B#BB967002FD100000
(1789541828.216972) can0 29C#2800000000000000
(1789541828.217087) can0 33F#0000000028000040
(1789541828.217296) can0 394#0036000010370617
(1789541828.217538) can0 396#3B6D4E2800454545
(1789541828.217778) can0 39A#0036020066400000
(1789541828.218029) can0 39B#3C3A82000000189C
(1789541828.225203) can0 33B#0000003F00000000
(1789541828.225440) can0 323#0000000000000000
(1789541828.225675) can0 324#0000003F41000000
(1789541828.225937) can0 33D#0000102000280000
(1789541828.226165) can0 3B7#00000000000B8C87
(1789541828.226424) can0 491#0000000000000000
(1789541828.266829) can0 297#0101E040FFFF8C2C
(1789541828.266904) can0 29B#BB967002FD100000
(1789541828.316807) can0 297#0101E040FFFF8D2D
(1789541828.316905) can0 29B#BB967002FD100000
(1789541828.316984) can0 29C#2800000000000000
(1789541828.317064) can0 33F#0000000028000040
(1789541828.317281) can0 394#0036000010370716
(1789541828.317516) can0 396#3B6D4E2800454545
(1789541828.317755) can0 39A#0036020076000000
(1789541828.318002) can0 39B#3C3A820000001C98
(1789541828.325218) can0 33B#0000003F00000000
(1789541828.325446) can0 323#0000000000000000
(1789541828.325685) can0 324#0000003F41000000
(1789541828.325937) can0 33D#0000102000280000
(1789541828.326179) can0 3B7#00000000000C8B87
(1789541828.326419) can0 491#0000000000000000
(1789541828.366828) can0 297#0101E040FFFF8E2E
(1789541828.366913) can0 29B#BB967002FD100000
(1789541828.416850) can0 297#0101E040FFFF8F2F
(1789541828.416918) can0 29B#BB967002FD100000
(1789541828.416997) can0 29C#2800000000000000
(1789541828.417078) can0 33F#0000000028000040
(1789541828.417276) can0 394#0036000010370819
(1789541828.417516) can0 396#3B6D4E2800454545
(1789541828.417765) can0 39A#0036020085C00000
(1789541828.418016) can0 39B#3C3A8200000020A4
(1789541828.425280) can0 33B#0000003F00000000
(1789541828.425480) can0 323#0000000000000000
(1789541828.425728) can0 324#0000003F41000000
(1789541828.425978) can0 33D#0000102000280000
(1789541828.426218) can0 3B7#00000000000D8A87
(1789541828.426460) can0 491#0000000000000000
(1789541828.466814) can0 297#0101E040FFFF8020
(1789541828.466849) can0 29B#BB967002FD100000
(1789541828.516804) can0 297#0101E040FFFF8121
(1789541828.516929) can0 29B#BB967002FD100000
(1789541828.517010) can0 29C#2800000000000000
(1789541828.517052) can0 33F#0000000028000040
(1789541828.517283) can0 394#0036000010370918
(1789541828.517529) can0 396#3B6D4E2800454545
(1789541828.517782) can0 39A#0036020095800000
(1789541828.518025) can0 39B#3C3A8200000024A0
(1789541828.525272) can0 33B#0000003F00000000
(1789541828.525511) can0 323#0000000000001D65
(1789541828.525746) can0 324#0000003F41000000
(1789541828.525999) can0 33D#0000102000280000
(1789541828.526233) can0 3B7#00000000000E8987
(1789541828.526509) can0 491#0000000000000000
(1789541828.566828) can0 297#0101E040FFFF8222
(1789541828.566863) can0 29B#BB967002FD100000
(1789541828.616867) can0 297#0101E040FFFF8323
(1789541828.616985) can0 29B#BB967002FD100000
(1789541828.617064) can0 29C#2800000000000000
(1789541828.617106) can0 33F#0000000028000040
(1789541828.617324) can0 394#0036000010370A1B
(1789541828.617576) can0 396#3B6D4E2800454545
(1789541828.617808) can0 39A#00360200A5400000
(1789541828.618055) can0 39B#3C3A8200000028AC
(1789541828.625221) can0 33B#0000003F00000000
(1789541828.625448) can0 323#0000000000001D65
(1789541828.625700) can0 324#0000003F41000000
(1789541828.625947) can0 33D#0000102000280000
(1789541828.626184) can0 3B7#00000000000F8887
(1789541828.626435) can0 491#0000000000000000
(1789541828.666832) can0 297#0101E040FFFF8424
(1789541828.666878) can0 29B#BB967002FD100000
(1789541828.716858) can0 297#0101E040FFFF8525
(1789541828.716959) can0 29B#BB967002FD100000
(1789541828.717039) can0 29C#2800000000000000
(1789541828.717117) can0 33F#0000000028000040
(1789541828.717290) can0 394#0036000010370B1A
(1789541828.717542) can0 396#3B6D4E2800454545
(1789541828.717788) can0 39A#00360200B5000000
(1789541828.718028) can0 39B#3C3A820000002CA8
(1789541828.725225) can0 33B#0000003F00000000
(1789541828.725445) can0 323#0000000000001D65
(1789541828.725694) can0 324#0000004041000000
(1789541828.725963) can0 33D#0000102000280000
(1789541828.726184) can0 3B7#0000000000008787
(1789541828.726445) can0 491#0000000000000000
(1789541828.766844) can0 297#0101E040FFFF8626
(1789541828.766887) can0 29B#BB967002FD100000
(1789541828.816854) can0 297#0101E040FFFF8727
(1789541828.816975) can0 29B#BB967002FD100000
(1789541828.817053) can0 29C#2800000000000000
(1789541828.817096) can0 33F#0000000028000040
(1789541828.817325) can0 394#0036000010370C1D
(1789541828.817573) can0 396#3B6D4E2800454545
(1789541828.817823) can0 39A#00360200C4C00000
(1789541828.818076) can0 39B#3C3A8200000030B4
(1789541828.825213) can0 33B#0000003F00000000
(1789541828.825449) can0 323#0000000000001D65
(1789541828.825701) can0 324#0000004041000000
(1789541828.825975) can0 33D#0000102000280000
(1789541828.826197) can0 3B7#0000000000018687
(1789541828.826447) can0 491#0000000000000000
(1789541828.866841) can0 297#0101E040FFFF8828
(1789541828.866896) can0 29B#BB967002FD100000
(1789541828.916856) can0 297#0101E040FFFF8929
(1789541828.916893) can0 29B#BB967002FD100000
(1789541828.917022) can0 29C#2800000000000000
(1789541828.917101) can0 33F#0000000028000040
(1789541828.917295) can0 394#0036000010370D1C
(1789541828.917534) can0 396#3B6D4E2800454545
(1789541828.917778) can0 39A#00360200D4800000
(1789541828.918025) can0 39B#3C3A8200000034B0
(1789541828.925336) can0 33B#0000003F00000000
(1789541828.925560) can0 323#0000000000001D65
(1789541828.925809) can0 324#0000004041000000
(1789541828.926056) can0 33D#0000102000280000
(1789541828.926299) can0 3B7#0000000000028587
(1789541828.926537) can0 491#0000000000000000
(1789541828.966845) can0 297#0101E040FFFF8A2A
(1789541828.966891) can0 29B#BB967002FD100000
(1789541829.016858) can0 297#0101E040FFFF8B2B
(1789541829.016934) can0 29B#BB967002FD100000
(1789541829.017035) can0 29C#2800000000000000
(1789541829.017114) can0 33F#0000000028000040
(1789541829.017319) can0 394#0036000010370E1F
(1789541829.017566) can0 396#3B6D4E2800454545
(1789541829.017812) can0 39A#00360200E4400000
(1789541829.018058) can0 39B#3C3A8200000038BC
(1789541829.025237) can0 33B#0000003F00000000
(1789541829.025475) can0 323#0000000000001FAD
(1789541829.025724) can0 324#0000004041000000
(1789541829.026000) can0 33D#0000102000280000
(1789541829.026197) can0 3B7#0000000000038487
(1789541829.026448) can0 491#0000000000000000
(1789541829.066823) can0 297#0101E040FFFF8C2C
(1789541829.066885) can0 29B#BB967002FD100000
(1789541829.116872) can0 297#0101E040FFFF8D2D
(1789541829.116912) can0 29B#BB967002FD100000
(1789541829.117017) can0 29C#2800000000000000
(1789541829.117131) can0 33F#0000000028000040
(1789541829.117324) can0 394#0036000010370F1E
(1789541829.117571) can0 396#3B6D4E2800454545
(1789541829.117815) can0 39A#00360200F4000000
(1789541829.118068) can0 39B#3C3A820000003CB8
(1789541829.125300) can0 33B#0000003F00000000
(1789541829.125524) can0 323#0000000000001FAD
(1789541829.125776) can0 324#0000004041000000
(1789541829.126033) can0 33D#0000102000280000
(1789541829.126263) can0 3B7#0000000000048387
(1789541829.126527) can0 491#0000000000000000
(1789541829.166826) can0 297#0101E040FFFF8E2E
(1789541829.166883) can0 29B#BB967002FD100000
(1789541829.216857) can0 297#0101E040FFFF8F2F
(1789541829.216893) can0 29B#BB967002FD100000
(1789541829.217025) can0 29C#2800000000000000
(1789541829.217102) can0 33F#0000000028000040
(1789541829.217286) can0 394#0036000010370011
(1789541829.217526) can0 396#3B6D4E2800454545
(1789541829.217797) can0 39A#0036020003C00000
(1789541829.218038) can0 39B#3C3A820000000084
(1789541829.225252) can0 33B#0000003F00000000
(1789541829.225458) can0 323#0000000000001FAD
(1789541829.225722) can0 324#0000004041000000
(1789541829.226027) can0 33D#0000102000280000
(1789541829.226204) can0 3B7#0000000000058287
(1789541829.226450) can0 491#0000000000000000
(1789541829.266831) can0 297#0101E040FFFF8020
(1789541829.266899) can0 29B#BB967002FD100000
(1789541829.316859) can0 297#0101E040FFFF8121
(1789541829.316932) can0 29B#BB967002FD100000
(1789541829.316972) can0 29C#2800000000000000
(1789541829.317085) can0 33F#0000000028000040
(1789541829.317312) can0 394#0036000010370110
(1789541829.317550) can0 396#3B6D4E2800454545
(1789541829.317806) can0 39A#0036020013800000
(1789541829.318051) can0 39B#3C3A820000000480
(1789541829.325230) can0 33B#0000003F00000000
(1789541829.325464) can0 323#0000000000001FAD
(1789541829.325714) can0 324#0000004041000000
(1789541829.325953) can0 33D#0000102000280000
(1789541829.326198) can0 3B7#0000000000068187
(1789541829.326447) can0 491#0000000000000000
(1789541829.366826) can0 297#0101E040FFFF8222
(1789541829.366880) can0 29B#BB967002FD100000
(1789541829.416855) can0 297#0101E040FFFF8323
(1789541829.416934) can0 29B#BB967002FD100000
(1789541829.416972) can0 29C#2800000000000000
(1789541829.417087) can0 33F#0000000028000040
(1789541829.417313) can0 394#0036000010370213
(1789541829.417561) can0 396#3B6D4E2800454545
(1789541829.417807) can0 39A#0036020023400000
(1789541829.418053) can0 39B#3C3A82000000088C
(1789541829.425262) can0 33B#0000003F00000000
(1789541829.425491) can0 323#0000000000001FAD
(1789541829.425757) can0 324#0000004041000000
(1789541829.426056) can0 33D#0000102000280000
(1789541829.426247) can0 3B7#0000000000078087
(1789541829.426491) can0 491#0000000000000000
(1789541829.466833) can0 297#0101E040FFFF8424
(1789541829.466892) can0 29B#BB967002FD100000
(1789541829.516852) can0 297#0101E040FFFF8525
(1789541829.516892) can0 29B#BB967002FD100000
(1789541829.516969) can0 29C#2800000000000000
(1789541829.517065) can0 33F#0000000028000040
(1789541829.517315) can0 394#0036000010370312
(1789541829.517568) can0 396#3B6D4E2800454545
(1789541829.517802) can0 39A#0036020033000000
(1789541829.518065) can0 39B#3C3A820000000C88
(1789541829.525310) can0 33B#0000003F00000000
(1789541829.525542) can0 323#0000000000000000
(1789541829.525774) can0 324#0000004041000000
(1789541829.526067) can0 33D#0000102000280000
(1789541829.526292) can0 3B7#0000000000088F87
(1789541829.526523) can0 491#0000000000000000
(1789541829.566828) can0 297#0101E040FFFF8626
(1789541829.566866) can0 29B#BB967002FD100000
(1789541829.616857) can0 297#0101E040FFFF8727
(1789541829.616975) can0 29B#BB967002FD100000
(1789541829.617080) can0 29C#2800000000000000
(1789541829.617121) can0 33F#0000000028000040
(1789541829.617312) can0 394#0036000010370415
(1789541829.617561) can0 396#3B6D4E2800454545
(1789541829.617803) can0 39A#0036020042C00000
(1789541829.618083) can0 39B#3C3A820000001094
(1789541829.625251) can0 33B#0000003F00000000
(1789541829.625479) can0 323#0000000000000000
(1789541829.625728) can0 324#0000004041000000
(1789541829.625969) can0 33D#0000102000280000
(1789541829.626218) can0 3B7#0000000000098E87
(1789541829.626478) can0 491#0000000000000000
(1789541829.666827) can0 297#0101E040FFFF8828
(1789541829.666866) can0 29B#BB967002FD100000
(1789541829.716819) can0 297#0101E040FFFF8929
(1789541829.716896) can0 29B#BB967002FD100000
(1789541829.716976) can0 29C#2800000000000000
(1789541829.717131) can0 33F#0000000028000040
(1789541829.717285) can0 394#0036000010370514
(1789541829.717527) can0 396#3B6D4E2800454545
(1789541829.717775) can0 39A#0036020052800000
(1789541829.718019) can0 39B#3C3A820000001490
(1789541829.725255) can0 33B#0000003F00000000
(1789541829.725491) can0 323#0000000000000000
(1789541829.725728) can0 324#0000004041000000
(1789541829.725971) can0 33D#0000102000280000
(1789541829.726218) can0 3B7#00000000000A8D87
(1789541829.726471) can0 491#0000000000000000
(1789541829.766826) can0 297#0101E040FFFF8A2A
(1789541829.766875) can0 29B#BB967002FD100000
(1789541829.816865) can0 297#0101E040FFFF8B2B
(1789541829.816941) can0 29B#BB967002FD100000
(1789541829.816981) can0 29C#2800000000000000
(1789541829.817105) can0 33F#0000000028000040
(1789541829.817317) can0 394#0036000010370617
(1789541829.817560) can0 396#3B6D4E2800454545
(1789541829.817801) can0 39A#0036020062400000
(1789541829.818111) can0 39B#3C3A82000000189C
(1789541829.825330) can0 33B#0000003F00000000
(1789541829.825555) can0 323#0000000000000000
(1789541829.825803) can0 324#0000004041000000
(1789541829.826107) can0 33D#0000102000280000
(1789541829.826293) can0 3B7#00000000000B8C87
(1789541829.826568) can0 491#0000000000000000
(1789541829.866851) can0 297#0101E040FFFF8C2C
(1789541829.866877) can0 29B#BB967002FD100000
(1789541829.916880) can0 297#0101E040FFFF8D2D
(1789541829.916908) can0 29B#BB967002FD100000
(1789541829.916992) can0 29C#2800000000000000
(1789541829.917119) can0 33F#0000000028000040
(1789541829.917322) can0 394#0036000010370716
(1789541829.917571) can0 396#3B6D4E2800454545
(1789541829.917815) can0 39A#0036020072000000
(1789541829.918134) can0 39B#3C3A820000001C98
(1789541829.925386) can0 33B#0000003F00000000
(1789541829.925607) can0 323#0000000000000000
(1789541829.925877) can0 324#0000004041000000
(1789541829.926123) can0 33D#0000102000280000
(1789541829.926343) can0 3B7#00000000000C8B87
(1789541829.926613) can0 491#0000000000000000
(1789541829.966866) can0 297#0101E040FFFF8E2E
(1789541829.966901) can0 29B#BB967002FD100000
(1789541830.016864) can0 297#0101E040FFFF8F2F
(1789541830.016898) can0 29B#BB967002FD100000
(1789541830.016989) can0 29C#2800000000000000
(1789541830.017138) can0 33F#0000000028000040
(1789541830.017321) can0 394#0036000010370819
(1789541830.017555) can0 396#3B6D4E2800454545
(1789541830.017824) can0 39A#0036020081C00000
(1789541830.018057) can0 39B#3C3A8200000020A4
(1789541830.025255) can0 33B#0000003F00000000
(1789541830.025493) can0 323#0000000000001D65
(1789541830.025732) can0 324#0000004041000000
(1789541830.025987) can0 33D#0000102000280000
(1789541830.026232) can0 3B7#00000000000D8A87
(1789541830.026481) can0 491#0000000000000000
(1789541830.066835) can0 297#0101E040FFFF8020
(1789541830.066902) can0 29B#BB967002FD100000
(1789541830.116838) can0 297#0101E040FFFF8121
(1789541830.116908) can0 29B#BB967002FD100000
(1789541830.116987) can0 29C#2800000000000000
(1789541830.117144) can0 33F#0000000028000040
(1789541830.117309) can0 394#0036000010370918
(1789541830.117544) can0 396#3B6D4E2800454545
(1789541830.117815) can0 39A#0036020091800000
(1789541830.118042) can0 39B#3C3A8200000024A0
(1789541830.125264) can0 33B#0000003F00000000
(1789541830.125500) can0 323#0000000000001D65
(1789541830.125754) can0 324#0000004041000000
(1789541830.125995) can0 33D#0000102000280000
(1789541830.126224) can0 3B7#00000000000E8987
(1789541830.126494) can0 491#0000000000000000
(1789541830.166817) can0 297#0101E040FFFF8222
(1789541830.166858) can0 29B#BB967002FD100000
(1789541830.216857) can0 297#0101E040FFFF8323
(1789541830.216895) can0 29B#BB967002FD100000
(1789541830.216975) can0 29C#2800000000000000
(1789541830.217059) can0 33F#0000000028000040
(1789541830.217313) can0 394#0036000010370A1B
(1789541830.217549) can0 396#3B6D4E2800454545
(1789541830.217794) can0 39A#00360200A1400000
(1789541830.218045) can0 39B#3C3A8200000028AC
(1789541830.225348) can0 33B#0000003F00000000
(1789541830.225574) can0 323#0000000000001D65
(1789541830.225821) can0 324#0000004041000000
(1789541830.226062) can0 33D#0000102000280000
(1789541830.226305) can0 3B7#00000000000F8887
(1789541830.226562) can0 491#0000000000000000
(1789541830.266827) can0 297#0101E040FFFF8424
(1789541830.266861) can0 29B#BB967002FD100000
(1789541830.316822) can0 297#0101E040FFFF8525
(1789541830.316897) can0 29B#BB967002FD100000
(1789541830.316976) can0 29C#2800000000000000
(1789541830.317063) can0 33F#0000000028000040
(1789541830.317296) can0 394#0036000010370B1A
(1789541830.317554) can0 396#3B6D4E2800454545
(1789541830.317796) can0 39A#00360200B1000000
(1789541830.318049) can0 39B#3C3A820000002CA8
(1789541830.325299) can0 33B#0000003F00000000
(1789541830.325503) can0 323#0000000000001D65
(1789541830.325746) can0 324#0000004041000000
(1789541830.325985) can0 33D#0000102000280000
(1789541830.326240) can0 3B7#0000000000008787
(1789541830.326501) can0 491#0000000000000000
(1789541830.366829) can0 297#0101E040FFFF8626
(1789541830.366887) can0 29B#BB967002FD100000
(1789541830.416814) can0 297#0101E040FFFF8727
(1789541830.416897) can0 29B#BB967002FD100000
(1789541830.416933) can0 29C#2800000000000000
(1789541830.417060) can0 33F#0000000028000040
(1789541830.417284) can0 394#0036000010370C1D
(1789541830.417532) can0 396#3B6D4E2800454545
(1789541830.417782) can0 39A#00360200C0C00000
(1789541830.418012) can0 39B#3C3A8200000030B4
(1789541830.425313) can0 33B#0000003F00000000
(1789541830.425539) can0 323#0000000000001D65
(1789541830.425787) can0 324#0000004041000000
(1789541830.426034) can0 33D#0000102000280000
(1789541830.426284) can0 3B7#0000000000018687
(1789541830.426514) can0 491#0000000000000000
(1789541830.466822) can0 297#0101E040FFFF8828
(1789541830.466870) can0 29B#BB967002FD100000
(1789541830.516878) can0 297#0101E040FFFF8929
(1789541830.516950) can0 29B#BB967002FD100000
(1789541830.516982) can0 29C#2800000000000000
(1789541830.517087) can0 33F#0000000028000040
(1789541830.517308) can0 394#0036000010370D1C
(1789541830.517582) can0 396#3B6D4E2800454545
(1789541830.517815) can0 39A#00360200D0800000
(1789541830.518064) can0 39B#3C3A8200000034B0
(1789541830.525290) can0 33B#0000003F00000000
(1789541830.525518) can0 323#0000000000001FAD
(1789541830.525763) can0 324#0000004041000000
(1789541830.526005) can0 33D#0000102000280000
(1789541830.526254) can0 3B7#0000000000028587
(1789541830.526494) can0 491#0000000000000000
(1789541830.566849) can0 297#0101E040FFFF8A2A
(1789541830.566898) can0 29B#BB967002FD100000
(1789541830.616830) can0 297#0101E040FFFF8B2B
(1789541830.616906) can0 29B#BB967002FD100000
(1789541830.616943) can0 29C#2800000000000000
(1789541830.617063) can0 33F#0000000028000040
(1789541830.617298) can0 394#0036000010370E1F
(1789541830.617542) can0 396#3B6D4E2800454545
(1789541830.617783) can0 39A#00360200E0400000
(1789541830.618027) can0 39B#3C3A8200000038BC
(1789541830.625269) can0 33B#0000003F00000000
(1789541830.625503) can0 323#0000000000001FAD
(1789541830.625741) can0 324#0000004041000000
(1789541830.625990) can0 33D#0000102000280000
(1789541830.626234) can0 3B7#0000000000038487
(1789541830.626475) can0 491#0000000000000000
(1789541830.666829) can0 297#0101E040FFFF8C2C
(1789541830.666879) can0 29B#BB967002FD100000
(1789541830.716855) can0 297#0101E040FFFF8D2D
(1789541830.716896) can0 29B#BB967002FD100000
(1789541830.716932) can0 29C#2800000000000000
(1789541830.717050) can0 33F#0000000028000040
(1789541830.717283) can0 394#0036000010370F1E
(1789541830.717532) can0 396#3B6D4E2800454545
(1789541830.717774) can0 39A#00360200F0000000
(1789541830.718017) can0 39B#3C3A820000003CB8
(1789541830.725272) can0 33B#0000003F00000000
(1789541830.725507) can0 323#0000000000001FAD
(1789541830.725768) can0 324#0000004041000000
(1789541830.726005) can0 33D#0000102000280000
(1789541830.726255) can0 3B7#0000000000048387
(1789541830.726496) can0 491#0000000000000000
(1789541830.766820) can0 297#0101E040FFFF8E2E
(1789541830.766878) can0 29B#BB967002FD100000
(1789541830.816848) can0 297#0101E040FFFF8F2F
(1789541830.816928) can0 29B#BB967002FD100000
(1789541830.816965) can0 29C#2800000000000000
(1789541830.817061) can0 33F#0000000028000040
(1789541830.817308) can0 394#0036000010370011
(1789541830.817548) can0 396#3B6D4E2800454545
(1789541830.817796) can0 39A#00360200FFC00000
(1789541830.818042) can0 39B#3C3A820000000084
(1789541830.825352) can0 33B#0000003F00000000
(1789541830.825567) can0 323#0000000000001FAD
(1789541830.825807) can0 324#0000004041000000
(1789541830.826050) can0 33D#0000102000280000
(1789541830.826297) can0 3B7#0000000000058287
(1789541830.826548) can0 491#0000000000000000
(1789541830.866830) can0 297#0101E040FFFF8020
(1789541830.866883) can0 29B#BB967002FD100000
(1789541830.916849) can0 297#0101E040FFFF8121
(1789541830.916889) can0 29B#BB967002FD100000
(1789541830.916967) can0 29C#2800000000000000
(1789541830.917052) can0 33F#0000000028000040
(1789541830.917301) can0 394#0036000010370110
(1789541830.917549) can0 396#3B6D4E2800454545
(1789541830.917790) can0 39A#003602000F800000
(1789541830.918040) can0 39B#3C3A820000000480
(1789541830.925319) can0 33B#0000003F00000000
(1789541830.925542) can0 323#0000000000001FAD
(1789541830.925791) can0 324#0000004041000000
(1789541830.926031) can0 33D#0000102000280000
(1789541830.926283) can0 3B7#0000000000068187
(1789541830.926522) can0 491#0000000000000000
(1789541830.966828) can0 297#0101E040FFFF8222
(1789541830.966886) can0 29B#BB967002FD100000
(1789541831.016847) can0 297#0101E040FFFF8323
(1789541831.016889) can0 29B#BB967002FD100000
(1789541831.016967) can0 29C#2800000000000000
(1789541831.017053) can0 33F#0000000028000040
(1789541831.017282) can0 394#0036000010370213
(1789541831.017526) can0 396#3B6D4E2800454545
(1789541831.017766) can0 39A#003602001F400000
(1789541831.018016) can0 39B#3C3A82000000088C
(1789541831.025294) can0 33B#0000003F00000000
(1789541831.025529) can0 323#0000000000000000
(1789541831.025768) can0 324#0000004041000000
(1789541831.026028) can0 33D#0000102000280000
(1789541831.026265) can0 3B7#0000000000078087
(1789541831.026518) can0 491#0000000000000000
(1789541831.066825) can0 297#0101E040FFFF8424
(1789541831.066865) can0 29B#BB967002FD100000
(1789541831.116862) can0 297#0101E040FFFF8525
(1789541831.116901) can0 29B#BB967002FD100000
(1789541831.116978) can0 29C#2800000000000000
(1789541831.117067) can0 33F#0000000028000040
(1789541831.117296) can0 394#0036000010370312
(1789541831.117540) can0 396#3B6D4E2800454545
(1789541831.117781) can0 39A#003602002F000000
(1789541831.118036) can0 39B#3C3A820000000C88
(1789541831.125294) can0 33B#0000003F00000000
(1789541831.125516) can0 323#0000000000000000
(1789541831.125782) can0 324#0000004041000000
(1789541831.126032) can0 33D#0000102000280000
(1789541831.126278) can0 3B7#0000000000088F87
(1789541831.126515) can0 491#0000000000000000
(1789541831.166823) can0 297#0101E040FFFF8626
(1789541831.166860) can0 29B#BB967002FD100000
(1789541831.216853) can0 297#0101E040FFFF8727
(1789541831.216888) can0 29B#BB967002FD100000
(1789541831.216970) can0 29C#2800000000000000
(1789541831.217047) can0 33F#0000000028000040
(1789541831.217287) can0 394#0036000010370415
(1789541831.217515) can0 396#3B6D4E2800454545
(1789541831.217778) can0 39A#003602003EC00000
(1789541831.218015) can0 39B#3C3A820000001094
(1789541831.225303) can0 33B#0000003F00000000
(1789541831.225545) can0 323#0000000000000000
(1789541831.225775) can0 324#0000004041000000
(1789541831.226024) can0 33D#0000102000280000
(1789541831.226291) can0 3B7#0000000000098E87
(1789541831.226516) can0 491#0000000000000000
(1789541831.266834) can0 297#0101E040FFFF8828
(1789541831.266893) can0 29B#BB967002FD100000
(1789541831.316824) can0 297#0101E040FFFF8929
(1789541831.316940) can0 29B#BB967002FD100000
(1789541831.316945) can0 29C#2800000000000000
(1789541831.317060) can0 33F#0000000028000040
(1789541831.317300) can0 394#0036000010370514
(1789541831.317528) can0 396#3B6D4E2800454545
(1789541831.317775) can0 39A#003602004E800000
(1789541831.318025) can0 39B#3C3A820000001490
(1789541831.325325) can0 33B#0000003F00000000
(1789541831.325529) can0 323#0000000000000000
(1789541831.325788) can0 324#0000004041000000
(1789541831.326026) can0 33D#0000102000280000
(1789541831.326302) can0 3B7#00000000000A8D87
(1789541831.326527) can0 491#0000000000000000
(1789541831.366866) can0 297#0101E040FFFF8A2A
(1789541831.366908) can0 29B#BB967002FD100000
(1789541831.416862) can0 297#0101E040FFFF8B2B
(1789541831.416899) can0 29B#BB967002FD100000
(1789541831.416977) can0 29C#2800000000000000
(1789541831.417073) can0 33F#0000000028000040
(1789541831.417314) can0 394#0036000010370617
(1789541831.417567) can0 396#3B6D4E2800454545
(1789541831.417814) can0 39A#003602005E400000
(1789541831.418051) can0 39B#3C3A82000000189C
(1789541831.425353) can0 33B#0000003F00000000
(1789541831.425571) can0 323#0000000000000000
(1789541831.425819) can0 324#0000004041000000
(1789541831.426070) can0 33D#0000102000280000
(1789541831.426316) can0 3B7#00000000000B8C87
(1789541831.426554) can0 491#0000000000000000
(1789541831.466831) can0 297#0101E040FFFF8C2C
(1789541831.466865) can0 29B#BB967002FD100000
(1789541831.516855) can0 297#0101E040FFFF8D2D
(1789541831.516891) can0 29B#BB967002FD100000
(1789541831.516970) can0 29C#2800000000000000
(1789541831.517061) can0 33F#0000000028000040
(1789541831.517338) can0 394#0036000010370716
(1789541831.517539) can0 396#3B6D4E2800454545
(1789541831.517773) can0 39A#003602006E000000
(1789541831.518026) can0 39B#3C3A820000001C98
(1789541831.525347) can0 33B#0000003F00000000
(1789541831.525528) can0 323#0000000000001D65
(1789541831.525803) can0 324#0000004041000000
(1789541831.526033) can0 33D#0000102000280000
(1789541831.526258) can0 3B7#00000000000C8B87
(1789541831.526517) can0 491#0000000000000000
(1789541831.566820) can0 297#0101E040FFFF8E2E
(1789541831.566855) can0 29B#BB967002FD100000
(1789541831.616848) can0 297#0101E040FFFF8F2F
(1789541831.616885) can0 29B#BB967002FD100000
(1789541831.616924) can0 29C#2800000000000000
(1789541831.617042) can0 33F#0000000028000040
(1789541831.617341) can0 394#0036000010370819
(1789541831.617525) can0 396#3B6D4E2800454545
(1789541831.617778) can0 39A#003602007DC00000
(1789541831.618017) can0 39B#3C3A8200000020A4
(1789541831.625368) can0 33B#0000003F00000000
(1789541831.625531) can0 323#0000000000001D65
(1789541831.625787) can0 324#0000004041000000
(1789541831.626027) can0 33D#0000102000280000
(1789541831.626346) can0 3B7#00000000000D8A87
(1789541831.626521) can0 491#0000000000000000
(1789541831.666832) can0 297#0101E040FFFF8020
(1789541831.666874) can0 29B#BB967002FD100000
(1789541831.716855) can0 297#0101E040FFFF8121
(1789541831.716892) can0 29B#BB967002FD100000
(1789541831.716970) can0 29C#2800000000000000
(1789541831.717052) can0 33F#0000000028000040
(1789541831.717282) can0 394#0036000010370918
(1789541831.717531) can0 396#3B6D4E2800454545
(1789541831.717767) can0 39A#003602008D800000
(1789541831.718025) can0 39B#3C3A8200000024A0
(1789541831.725379) can0 33B#0000003F00000000
(1789541831.725544) can0 323#0000000000001D65
(1789541831.725780) can0 324#0000004041000000
(1789541831.726029) can0 33D#0000102000280000
(1789541831.726271) can0 3B7#00000000000E8987
(1789541831.726514) can0 491#0000000000000000
(1789541831.766823) can0 297#0101E040FFFF8222
(1789541831.766871) can0 29B#BB967002FD100000
(1789541831.816851) can0 297#0101E040FFFF8323
(1789541831.816928) can0 29B#BB967002FD100000
(1789541831.816968) can0 29C#2800000000000000
(1789541831.817047) can0 33F#0000000028000040
(1789541831.817284) can0 394#0036000010370A1B
(1789541831.817525) can0 396#3B6D4E2800454545
(1789541831.817766) can0 39A#003602009D400000
(1789541831.818015) can0 39B#3C3A8200000028AC
(1789541831.825320) can0 33B#0000003F00000000
(1789541831.825538) can0 323#0000000000001D65
(1789541831.825783) can0 324#0000004041000000
(1789541831.826034) can0 33D#0000102000280000
(1789541831.826273) can0 3B7#00000000000F8887
(1789541831.826518) can0 491#0000000000000000
(1789541831.866832) can0 297#0101E040FFFF8424
(1789541831.866878) can0 29B#BB967002FD100000
(1789541831.916832) can0 297#0101E040FFFF8525
(1789541831.916943) can0 29B#BB967002FD100000
(1789541831.916983) can0 29C#2800000000000000
(1789541831.917073) can0 33F#0000000028000040
(1789541831.917298) can0 394#0036000010370B1A
(1789541831.917557) can0 396#3B6D4E2800454545
(1789541831.917798) can0 39A#00360200AD000000
(1789541831.918046) can0 39B#3C3A820000002CA8
(1789541831.925470) can0 33B#0000003F00000000
(1789541831.925718) can0 323#0000000000001D65
(1789541831.925938) can0 324#0000004041000000
(1789541831.926185) can0 33D#0000102000280000
(1789541831.926438) can0 3B7#0000000000008787
(1789541831.926675) can0 491#0000000000000000
(1789541831.966822) can0 297#0101E040FFFF8626
(1789541831.966856) can0 29B#BB967002FD100000
(1789541832.016850) can0 297#0101E040FFFF8727
(1789541832.016886) can0 29B#BB967002FD100000
(1789541832.016998) can0 29C#2800000000000000
(1789541832.017064) can0 33F#0000000028000040
(1789541832.017308) can0 394#0036000010370C1D
(1789541832.017551) can0 396#3B6D4E2800454545
(1789541832.017792) can0 39A#00360200BCC00000
(1789541832.018051) can0 39B#3C3A8200000030B4
(1789541832.025323) can0 33B#0000003F00000000
(1789541832.025545) can0 323#0000000000001FAD
(1789541832.025793) can0 324#0000004041000000
(1789541832.026033) can0 33D#0000102000280000
(1789541832.026273) can0 3B7#0000000000018687
(1789541832.026521) can0 491#0000000000000000
(1789541832.066834) can0 297#0101E040FFFF8828
(1789541832.066883) can0 29B#BB967002FD100000
(1789541832.116852) can0 297#0101E040FFFF8929
(1789541832.116889) can0 29B#BB967002FD100000
(1789541832.116967) can0 29C#2800000000000000
(1789541832.117059) can0 33F#0000000028000040
(1789541832.117284) can0 394#0036000010370D1C
(1789541832.117532) can0 396#3B6D4E2800454545
(1789541832.117777) can0 39A#00360200CC800000
(1789541832.118028) can0 39B#3C3A8200000034B0
(1789541832.125343) can0 33B#0000003F00000000
(1789541832.125549) can0 323#0000000000001FAD
(1789541832.125807) can0 324#0000004041000000
(1789541832.126046) can0 33D#0000102000280000
(1789541832.126296) can0 3B7#0000000000028587
(1789541832.126538) can0 491#0000000000000000
(1789541832.166828) can0 297#0101E040FFFF8A2A
(1789541832.166862) can0 29B#BB967002FD100000
(1789541832.216851) can0 297#0101E040FFFF8B2B
(1789541832.216926) can0 29B#BB967002FD100000
(1789541832.217006) can0 29C#2800000000000000
(1789541832.217056) can0 33F#0000000028000040
(1789541832.217281) can0 394#0036000010370E1F
(1789541832.217529) can0 396#3B6D4E2800454545
(1789541832.217769) can0 39A#00360200DC400000
(1789541832.218029) can0 39B#3C3A8200000038BC
(1789541832.225330) can0 33B#0000003F00000000
(1789541832.225560) can0 323#0000000000001FAD
(1789541832.225801) can0 324#0000004041000000
(1789541832.226060) can0 33D#0000102000280000
(1789541832.226284) can0 3B7#0000000000038487
(1789541832.226557) can0 491#0000000000000000
(1789541832.266821) can0 297#0101E040FFFF8C2C
(1789541832.266873) can0 29B#BB967002FD100000
(1789541832.316809) can0 297#0101E040FFFF8D2D
(1789541832.316884) can0 29B#BB967002FD100000
(1789541832.316964) can0 29C#2800000000000000
(1789541832.317059) can0 33F#0000000028000040
(1789541832.317282) can0 394#0036000010370F1E
(1789541832.317532) can0 396#3B6D4E2800454545
(1789541832.317769) can0 39A#00360200EC000000
(1789541832.318014) can0 39B#3C3A820000003CB8
(1789541832.325454) can0 33B#0000003F00000000
(1789541832.325624) can0 323#0000000000001FAD
(1789541832.325879) can0 324#0000004041000000
(1789541832.326120) can0 33D#0000102000280000
(1789541832.326438) can0 3B7#0000000000048387
(1789541832.326609) can0 491#0000000000000000
(1789541832.366824) can0 297#0101E040FFFF8E2E
(1789541832.366875) can0 29B#BB967002FD100000
(1789541832.416854) can0 297#0101E040FFFF8F2F
(1789541832.416889) can0 29B#BB967002FD100000
(1789541832.417008) can0 29C#2800000000000000
(1789541832.417073) can0 33F#0000000028000040
(1789541832.417309) can0 394#0036000010370011
(1789541832.417561) can0 396#3B6D4E2800454545
(1789541832.417807) can0 39A#00360200FBC00000
(1789541832.418048) can0 39B#3C3A820000000084
(1789541832.425355) can0 33B#0000003F00000000
(1789541832.425587) can0 323#0000000000001FAD
(1789541832.425846) can0 324#0000004041000000
(1789541832.426091) can0 33D#0000102000280000
(1789541832.426336) can0 3B7#0000000000058287
(1789541832.426588) can0 491#0000000000000000
(1789541832.466839) can0 297#0101E040FFFF8020
(1789541832.466880) can0 29B#BB967002FD100000
(1789541832.516860) can0 297#0101E040FFFF8121
(1789541832.516933) can0 29B#BB967002FD100000
(1789541832.516971) can0 29C#2800000000000000
(1789541832.517070) can0 33F#0000000028000040
(1789541832.517318) can0 394#0036000010370110
(1789541832.517559) can0 396#3B6D4E2800454545
(1789541832.517808) can0 39A#003602000B800000
(1789541832.518066) can0 39B#3C3A820000000480
(1789541832.525345) can0 33B#0000003F00000000
(1789541832.525572) can0 323#0000000000000000
(1789541832.525820) can0 324#0000004041000000
(1789541832.526060) can0 33D#0000102000280000
(1789541832.526310) can0 3B7#0000000000068187
(1789541832.526561) can0 491#0000000000000000
(1789541832.566822) can0 297#0101E040FFFF8222
(1789541832.566856) can0 29B#BB967002FD100000
(1789541832.616868) can0 297#0101E040FFFF8323
(1789541832.616939) can0 29B#BB967002FD100000
(1789541832.616981) can0 29C#2800000000000000
(1789541832.617071) can0 33F#0000000028000040
(1789541832.617332) can0 394#0036000010370213
(1789541832.617580) can0 396#3B6D4E2800454545
(1789541832.617825) can0 39A#003602001B400000
(1789541832.618055) can0 39B#3C3A82000000088C
(1789541832.625349) can0 33B#0000003F00000000
(1789541832.625585) can0 323#0000000000000000
(1789541832.625824) can0 324#0000004041000000
(1789541832.626073) can0 33D#0000102000280000
(1789541832.626323) can0 3B7#0000000000078087
(1789541832.626555) can0 491#0000000000000000
(1789541832.666834) can0 297#0101E040FFFF8424
(1789541832.666877) can0 29B#BB967002FD100000
(1789541832.716885) can0 297#0101E040FFFF8525
(1789541832.716957) can0 29B#BB967002FD100000
(1789541832.716999) can0 29C#2800000000000000
(1789541832.717097) can0 33F#0000000028000040
(1789541832.717345) can0 394#0036000010370312
(1789541832.717585) can0 396#3B6D4E2800454545
(1789541832.717844) can0 39A#003602002B000000
(1789541832.718093) can0 39B#3C3A820000000C88
(1789541832.725344) can0 33B#0000003F00000000
(1789541832.725560) can0 323#0000000000000000
(1789541832.725810) can0 324#0000004041000000
(1789541832.726070) can0 33D#0000102000280000
(1789541832.726311) can0 3B7#0000000000088F87
(1789541832.726558) can0 491#0000000000000000
(1789541832.766831) can0 297#0101E040FFFF8626
(1789541832.766870) can0 29B#BB967002FD100000
(1789541832.816853) can0 297#0101E040FFFF8727
(1789541832.816929) can0 29B#BB967002FD100000
(1789541832.817006) can0 29C#2800000000000000
(1789541832.817064) can0 33F#0000000028000040
(1789541832.817308) can0 394#0036000010370415
(1789541832.817558) can0 396#3B6D4E2800454545
(1789541832.817799) can0 39A#003602003AC00000
(1789541832.818038) can0 39B#3C3A820000001094
(1789541832.825363) can0 33B#0000003F00000000
(1789541832.825582) can0 323#0000000000000000
(1789541832.825830) can0 324#0000004041000000
(1789541832.826073) can0 33D#0000102000280000
(1789541832.826313) can0 3B7#0000000000098E87
(1789541832.826561) can0 491#0000000000000000
(1789541832.866827) can0 297#0101E040FFFF8828
(1789541832.866883) can0 29B#BB967002FD100000
(1789541832.916869) can0 297#0101E040FFFF8929
(1789541832.916953) can0 29B#BB967002FD100000
(1789541832.916984) can0 29C#2800000000000000
(1789541832.917088) can0 33F#0000000028000040
(1789541832.917373) can0 394#0036000010370514
(1789541832.917574) can0 396#3B6D4E2800454545
(1789541832.917814) can0 39A#003602004A800000
(1789541832.918065) can0 39B#3C3A820000001490
(1789541832.925478) can0 33B#0000003F00000000
(1789541832.925692) can0 323#0000000000000000
(1789541832.925931) can0 324#0000004041000000
(1789541832.926171) can0 33D#0000102000280000
(1789541832.926426) can0 3B7#00000000000A8D87
(1789541832.926664) can0 491#0000000000000000
(1789541832.966847) can0 297#0101E040FFFF8A2A
(1789541832.966898) can0 29B#BB967002FD100000
(1789541833.016864) can0 297#0101E040FFFF8B2B
(1789541833.016941) can0 29B#BB967002FD100000
(1789541833.016980) can0 29C#2800000000000000
(1789541833.017084) can0 33F#0000000028000040
(1789541833.017307) can0 394#0036000010370617
(1789541833.017550) can0 396#3B6D4E2800454545
(1789541833.017791) can0 39A#003602005A400000
(1789541833.018049) can0 39B#3C3A82000000189C
(1789541833.025358) can0 33B#0000003F00000000
(1789541833.025587) can0 323#0000000000001D65
(1789541833.025822) can0 324#0000004041000000
(1789541833.026072) can0 33D#0000102000280000
(1789541833.026318) can0 3B7#00000000000B8C87
(1789541833.026568) can0 491#0000000000000000
(1789541833.066827) can0 297#0101E040FFFF8C2C
(1789541833.066884) can0 29B#BB967002FD100000
(1789541833.116851) can0 297#0101E040FFFF8D2D
(1789541833.116925) can0 29B#BB967002FD100000
(1789541833.116966) can0 29C#2800000000000000
(1789541833.117056) can0 33F#0000000028000040
(1789541833.117303) can0 394#0036000010370716
(1789541833.117549) can0 396#3B6D4E2800454545
(1789541833.117793) can0 39A#003602006A000000
(1789541833.118042) can0 39B#3C3A820000001C98
(1789541833.125374) can0 33B#0000003F00000000
(1789541833.125574) can0 323#0000000000001D65
(1789541833.125833) can0 324#0000004041000000
(1789541833.126080) can0 33D#0000102000280000
(1789541833.126330) can0 3B7#00000000000C8B87
(1789541833.126572) can0 491#0000000000000000
(1789541833.166819) can0 297#0101E040FFFF8E2E
(1789541833.166852) can0 29B#BB967002FD100000
(1789541833.216900) can0 297#0101E040FFFF8F2F
(1789541833.216934) can0 29B#BB967002FD100000
(1789541833.217010) can0 29C#2800000000000000
(1789541833.217071) can0 33F#0000000028000040
(1789541833.217316) can0 394#0036000010370819
(1789541833.217563) can0 396#3B6D4E2800454545
(1789541833.217806) can0 39A#0036020079C00000
(1789541833.218052) can0 39B#3C3A8200000020A4
(1789541833.225371) can0 33B#0000003F00000000
(1789541833.225620) can0 323#0000000000001D65
(1789541833.225834) can0 324#0000004041000000
(1789541833.226083) can0 33D#0000102000280000
(1789541833.226326) can0 3B7#00000000000D8A87
(1789541833.226567) can0 491#0000000000000000
(1789541833.266818) can0 297#0101E040FFFF8020
(1789541833.266870) can0 29B#BB967002FD100000
(1789541833.316852) can0 297#0101E040FFFF8121
(1789541833.316967) can0 29B#BB967002FD100000
(1789541833.317017) can0 29C#2800000000000000
(1789541833.317076) can0 33F#0000000028000040
(1789541833.317303) can0 394#0036000010370918
(1789541833.317565) can0 396#3B6D4E2800454545
(1789541833.317792) can0 39A#0036020089800000
(1789541833.318040) can0 39B#3C3A8200000024A0
(1789541833.325365) can0 33B#0000003F00000000
(1789541833.325588) can0 323#0000000000001D65
(1789541833.325838) can0 324#0000004041000000
(1789541833.326077) can0 33D#0000102000280000
(1789541833.326320) can0 3B7#00000000000E8987
(1789541833.326569) can0 491#0000000000000000
(1789541833.366834) can0 297#0101E040FFFF8222
(1789541833.366875) can0 29B#BB967002FD100000
(1789541833.416855) can0 297#0101E040FFFF8323
(1789541833.416929) can0 29B#BB967002FD100000
(1789541833.417007) can0 29C#2800000000000000
(1789541833.417067) can0 33F#0000000028000040
(1789541833.417313) can0 394#0036000010370A1B
(1789541833.417581) can0 396#3B6D4E2800454545
(1789541833.417803) can0 39A#0036020099400000
(1789541833.418053) can0 39B#3C3A8200000028AC
(1789541833.425468) can0 33B#0000003F00000000
(1789541833.425691) can0 323#0000000000001D65
(1789541833.425930) can0 324#0000004041000000
(1789541833.426189) can0 33D#0000102000280000
(1789541833.426431) can0 3B7#00000000000F8887
(1789541833.426680) can0 491#0000000000000000
(1789541833.466834) can0 297#0101E040FFFF8424
(1789541833.466887) can0 29B#BB967002FD100000
(1789541833.516848) can0 297#0101E040FFFF8525
(1789541833.516927) can0 29B#BB967002FD100000
(1789541833.517009) can0 29C#2800000000000000
(1789541833.517055) can0 33F#0000000028000040
(1789541833.517318) can0 394#0036000010370B1A
