(1789484250.321278) can0 33B#6400007C00000000
(1789484250.321385) can0 323#0000000000000000
(1789484250.321651) can0 324#0000002828000000
(1789484250.321943) can0 33D#0000102000180000
(1789484250.322133) can0 3B7#0000000000010100
(1789484250.322377) can0 491#0000000000000000
(1789484250.421149) can0 33B#6400006600000000
(1789484250.421359) can0 323#0000000000000000
(1789484250.421592) can0 324#0000002851000000
(1789484250.421842) can0 33D#0000102000180000
(1789484250.422091) can0 3B7#0000000000020200
(1789484250.422331) can0 491#0000000000000000
(1789484250.521140) can0 33B#6400005400000000
(1789484250.521357) can0 323#0000000000000000
(1789484250.521597) can0 324#0000002F51000000
(1789484250.521844) can0 33D#0000102000180000
(1789484250.522091) can0 3B7#0000000000030300
(1789484250.522327) can0 491#0000000000000000
(1789484250.621115) can0 33B#6400004B00000000
(1789484250.621315) can0 323#0000000000000000
(1789484250.621557) can0 324#0000002F4B000000
(1789484250.621802) can0 33D#0000102000180000
(1789484250.622048) can0 3B7#0000000000040400
(1789484250.622292) can0 491#0000000000000000
(1789484250.721125) can0 33B#6400004500000000
(1789484250.721357) can0 323#0000000000000000
(1789484250.721572) can0 324#0000002F4B000000
(1789484250.721816) can0 33D#0000102000180000
(1789484250.722064) can0 3B7#0000000000050500
(1789484250.722325) can0 491#0000000000000000
(1789484250.821105) can0 33B#6400004300000000
(1789484250.821310) can0 323#0000000000000000
(1789484250.821557) can0 324#000000354B000000
(1789484250.821796) can0 33D#0000102000180000
(1789484250.822045) can0 3B7#0000000000060600
(1789484250.822304) can0 491#0000000000000000
(1789484250.921122) can0 33B#6400004200000000
(1789484250.921331) can0 323#0000000000000000
(1789484250.921570) can0 324#000000354B000000
(1789484250.921809) can0 33D#0000102000180000
(1789484250.922059) can0 3B7#0000000000070700
(1789484250.922308) can0 491#0000000000000000
(1789484251.021170) can0 33B#0000004100000000
(1789484251.021383) can0 323#0000000000000000
(1789484251.021611) can0 324#0000003547000000
(1789484251.021861) can0 33D#0000102000180000
(1789484251.022114) can0 3B7#0000000000080800
(1789484251.022354) can0 491#0000000000000000
(1789484251.121108) can0 33B#0000004000000000
(1789484251.121331) can0 323#0000000000000000
(1789484251.121584) can0 324#0000003847000000
(1789484251.121823) can0 33D#0000102000180000
(1789484251.122066) can0 3B7#0000000000090900
(1789484251.122305) can0 491#0000000000000000
(1789484251.221149) can0 33B#0000004000000000
(1789484251.221381) can0 323#0000000000000000
(1789484251.221615) can0 324#0000003845000000
(1789484251.221852) can0 33D#0000102000180000
(1789484251.222101) can0 3B7#00000000000A0A00
(1789484251.222348) can0 491#0000000000000000
(1789484251.321106) can0 33B#0000004000000000
(1789484251.321332) can0 323#0000000000001D65
(1789484251.321582) can0 324#0000003845000000
(1789484251.321810) can0 33D#0000102000180000
(1789484251.322086) can0 3B7#00004000000B4B00
(1789484251.322314) can0 491#0000000000000000
(1789484251.421183) can0 33B#0000004000000000
(1789484251.421402) can0 323#0000000000001D65
(1789484251.421638) can0 324#0000003A45000000
(1789484251.421874) can0 33D#0000102000180000
(1789484251.422132) can0 3B7#00004000000C4C00
(1789484251.422368) can0 491#0000000000000000
(1789484251.521138) can0 33B#0000004000000000
(1789484251.521340) can0 323#0000000000001D65
(1789484251.521576) can0 324#0000003B45000000
(1789484251.521828) can0 33D#0000102000180000
(1789484251.522105) can0 3B7#00004000000D4D00
(1789484251.522328) can0 491#0000000000000000
(1789484251.621143) can0 33B#0000004000000000
(1789484251.621346) can0 323#0000000000001D65
(1789484251.621577) can0 324#0000003B43000000
(1789484251.621815) can0 33D#0000102000180000
(1789484251.622119) can0 3B7#00004000000E4E00
(1789484251.622320) can0 491#0000000000000000
(1789484251.721249) can0 33B#0000004000000000
(1789484251.721441) can0 323#0000000000001D65
(1789484251.721685) can0 324#0000003C43000000
(1789484251.721924) can0 33D#0000102000180000
(1789484251.722166) can0 3B7#00004000000F4F00
(1789484251.722435) can0 491#0000000000000000
(1789484251.821195) can0 33B#0000004000000000
(1789484251.821421) can0 323#0000000000001D83
(1789484251.821660) can0 324#0000003C43000000
(1789484251.821899) can0 33D#0000102000180000
(1789484251.822140) can0 3B7#0000400000004000
(1789484251.822407) can0 491#0000000000000000
(1789484251.921188) can0 33B#0000004000000000
(1789484251.921356) can0 323#0000000000001D83
(1789484251.921592) can0 324#0000003C42000000
(1789484251.921836) can0 33D#0000102000180000
(1789484251.922077) can0 3B7#0000400000014100
(1789484251.922319) can0 491#0000000000000000
(1789484252.021201) can0 33B#0000004000000000
(1789484252.021344) can0 323#0000000000001D83
(1789484252.021589) can0 324#0000003D42000000
(1789484252.021837) can0 33D#0000102000180000
(1789484252.022073) can0 3B7#0000400000024200
(1789484252.022342) can0 491#0000000000000000
(1789484252.121210) can0 33B#0000004000000000
(1789484252.121362) can0 323#0000000000001D83
(1789484252.121603) can0 324#0000003D42000000
(1789484252.121842) can0 33D#0000102000180000
(1789484252.122092) can0 3B7#0000400000034300
(1789484252.122336) can0 491#0000000000000000
(1789484252.221401) can0 33B#0000004000000000
(1789484252.221623) can0 323#0000000000001D83
(1789484252.221856) can0 324#0000003D41000000
(1789484252.222096) can0 33D#0000102000180000
(1789484252.222349) can0 3B7#0000400000044400
(1789484252.222590) can0 491#0000000000000000
(1789484252.321237) can0 33B#0000004000000000
(1789484252.321436) can0 323#0000000000001FC5
(1789484252.321680) can0 324#0000003E41000000
(1789484252.321929) can0 33D#0000102000180000
(1789484252.322205) can0 3B7#0000400000054500
(1789484252.322416) can0 491#0000000000000000
(1789484252.421150) can0 33B#0000004000000000
(1789484252.421373) can0 323#0000000000001FC5
(1789484252.421614) can0 324#0000003E40000000
(1789484252.421853) can0 33D#0000102000180000
(1789484252.422096) can0 3B7#0000400000064600
(1789484252.422344) can0 491#0000000000000000
(1789484252.521155) can0 33B#0000004000000000
(1789484252.521367) can0 323#0000000000001FC5
(1789484252.521610) can0 324#0000003E40000000
(1789484252.521860) can0 33D#0000102000180000
(1789484252.522110) can0 3B7#0000400000074700
(1789484252.522357) can0 491#0000000000000000
(1789484252.621159) can0 33B#0000004000000000
(1789484252.621377) can0 323#0000000000001FC5
(1789484252.621607) can0 324#0000003E40000000
(1789484252.621847) can0 33D#0000102000180000
(1789484252.622124) can0 3B7#0000400000084800
(1789484252.622370) can0 491#0000000000000000
(1789484252.721210) can0 33B#0000004000000000
(1789484252.721423) can0 323#0000000000001FC5
(1789484252.721667) can0 324#0000003E40000000
(1789484252.721906) can0 33D#0000102000180000
(1789484252.722153) can0 3B7#0000400000094900
(1789484252.722419) can0 491#0000000000000000
(1789484252.821306) can0 33B#0000004000000000
(1789484252.821455) can0 323#0000000000000000
(1789484252.821697) can0 324#0000003E40000000
(1789484252.821935) can0 33D#0000102000180000
(1789484252.822180) can0 3B7#00004000000A4A00
(1789484252.822450) can0 491#0000000000000000
(1789484252.921172) can0 33B#0000004000000000
(1789484252.921370) can0 323#0000000000000000
(1789484252.921634) can0 324#0000003F40000000
(1789484252.921873) can0 33D#0000102000180000
(1789484252.922117) can0 3B7#00004000000B4B00
(1789484252.922364) can0 491#0000000000000000
(1789484253.021169) can0 33B#0000004000000000
(1789484253.021385) can0 323#0000000000000000
(1789484253.021628) can0 324#0000003F40000000
(1789484253.021867) can0 33D#0000102000180000
(1789484253.022110) can0 3B7#00004000000C4C00
(1789484253.022377) can0 491#0000000000000000
(1789484253.121168) can0 33B#0000004000000000
(1789484253.121388) can0 323#0000000000000000
(1789484253.121624) can0 324#0000003F40000000
(1789484253.121871) can0 33D#0000102000180000
(1789484253.122111) can0 3B7#00004000000D4D00
(1789484253.122371) can0 491#0000000000000000
(1789484253.221219) can0 33B#0000004000000000
(1789484253.221434) can0 323#0000000000000000
(1789484253.221688) can0 324#0000003F40000000
(1789484253.221930) can0 33D#0000102000180000
(1789484253.222173) can0 3B7#00004000000E4E00
(1789484253.222425) can0 491#0000000000000000
(1789484253.321180) can0 33B#0000004000000000
(1789484253.321394) can0 323#0000000000001D65
(1789484253.321630) can0 324#0000003F40000000
(1789484253.321867) can0 33D#0000102000280000
(1789484253.322123) can0 3B7#00004000000F4F00
(1789484253.322386) can0 491#0000000000000000
(1789484253.421202) can0 33B#0000004000000000
(1789484253.421423) can0 323#0000000000001D65
(1789484253.421663) can0 324#0000003F40000000
(1789484253.421900) can0 33D#0000102000280000
(1789484253.422160) can0 3B7#0000400000004000
(1789484253.422412) can0 491#0000000000000000
(1789484253.521177) can0 33B#0000004000000000
(1789484253.521389) can0 323#0000000000001D65
(1789484253.521638) can0 324#0000003F40000000
(1789484253.521879) can0 33D#0000102000280000
(1789484253.522139) can0 3B7#0000400000014100
(1789484253.522407) can0 491#0000000000000000
(1789484253.621211) can0 33B#0000004000000000
(1789484253.621440) can0 323#0000000000001D65
(1789484253.621675) can0 324#0000003F3F000000
(1789484253.621917) can0 33D#0000102000280000
(1789484253.622160) can0 3B7#0000400000024200
(1789484253.622428) can0 491#0000000000000000
(1789484253.721321) can0 33B#0000004000000000
(1789484253.721531) can0 323#0000000000001D65
(1789484253.721780) can0 324#0000003F3F000000
(1789484253.722020) can0 33D#0000102000280000
(1789484253.722277) can0 3B7#0000400000034300
(1789484253.722526) can0 491#0000000000000000
(1789484253.821187) can0 33B#0000004000000000
(1789484253.821417) can0 323#0000000000001FAD
(1789484253.821659) can0 324#0000003F3F000000
(1789484253.821906) can0 33D#0000102000280000
(1789484253.822132) can0 3B7#0000400000044400
(1789484253.822412) can0 491#0000000000000000
(1789484253.921261) can0 33B#0000004000000000
(1789484253.921470) can0 323#0000000000001FAD
(1789484253.921711) can0 324#0000003F3F000000
(1789484253.921950) can0 33D#0000102000280000
(1789484253.922209) can0 3B7#0000400000054500
(1789484253.922460) can0 491#0000000000000000
(1789484254.021222) can0 33B#0000004000000000
(1789484254.021461) can0 323#0000000000001FAD
(1789484254.021658) can0 324#0000003F3F000000
(1789484254.021916) can0 33D#0000102000280000
(1789484254.022155) can0 3B7#0000400000064600
(1789484254.022453) can0 491#0000000000000000
(1789484254.121212) can0 33B#0000004000000000
(1789484254.121457) can0 323#0000000000001FAD
(1789484254.121667) can0 324#0000003F3F000000
(1789484254.121908) can0 33D#0000102000280000
(1789484254.122152) can0 3B7#0000400000074700
(1789484254.122446) can0 491#0000000000000000
(1789484254.221493) can0 33B#0000004000000000
(1789484254.221652) can0 323#0000000000001FAD
(1789484254.221895) can0 324#0000003F3F000000
(1789484254.222143) can0 33D#0000102000280000
(1789484254.222386) can0 3B7#0000400000084800
(1789484254.222635) can0 491#0000000000000000
(1789484254.321200) can0 33B#0000004000000000
(1789484254.321485) can0 323#0000000000001FC5
(1789484254.321676) can0 324#0000003F3F000000
(1789484254.321920) can0 33D#0000102000280000
(1789484254.322159) can0 3B7#0000400000094900
(1789484254.322479) can0 491#0000000000000000
(1789484254.421210) can0 33B#0000004000000000
(1789484254.421422) can0 323#0000000000001FC5
(1789484254.421670) can0 324#0000003F3F000000
(1789484254.421928) can0 33D#0000102000280000
(1789484254.422178) can0 3B7#00004000000A4A00
(1789484254.422415) can0 491#0000000000000000
(1789484254.521308) can0 33B#0000004000000000
(1789484254.521525) can0 323#0000000000001FC5
(1789484254.521779) can0 324#0000003F3F000000
(1789484254.522017) can0 33D#0000102000280000
(1789484254.522261) can0 3B7#00004000000B4B00
(1789484254.522509) can0 491#0000000000000000
(1789484254.621212) can0 33B#0000004000000000
(1789484254.621429) can0 323#0000000000001FC5
(1789484254.621679) can0 324#0000003F3F000000
(1789484254.621915) can0 33D#0000102000280000
(1789484254.622165) can0 3B7#00004000000C4C00
(1789484254.622430) can0 491#0000000000000000
(1789484254.721258) can0 33B#0000004000000000
(1789484254.721529) can0 323#0000000000001FC5
(1789484254.721722) can0 324#0000003F3F000000
(1789484254.721971) can0 33D#0000102000280000
(1789484254.722212) can0 3B7#00004000000D4D00
(1789484254.722455) can0 491#0000000000000000
(1789484254.821228) can0 33B#0000004000000000
(1789484254.821441) can0 323#0000000000000000
(1789484254.821681) can0 324#0000003F3F000000
(1789484254.821926) can0 33D#0000102000280000
(1789484254.822166) can0 3B7#00004000000E4E00
(1789484254.822425) can0 491#0000000000000000
(1789484254.921222) can0 33B#0000004000000000
(1789484254.921446) can0 323#0000000000000000
(1789484254.921680) can0 324#0000003F3F000000
(1789484254.921929) can0 33D#0000102000280000
(1789484254.922179) can0 3B7#00004000000F4F00
(1789484254.922429) can0 491#0000000000000000
(1789484255.021221) can0 33B#0000004000000000
(1789484255.021446) can0 323#0000000000000000
(1789484255.021699) can0 324#0000003F3F000000
(1789484255.021942) can0 33D#0000102000280000
(1789484255.022192) can0 3B7#0000400000004000
(1789484255.022424) can0 491#0000000000000000
(1789484255.121274) can0 33B#0000004000000000
(1789484255.121496) can0 323#0000000000000000
(1789484255.121755) can0 324#0000003F3F000000
(1789484255.122000) can0 33D#0000102000280000
(1789484255.122244) can0 3B7#0000400000014100
(1789484255.122492) can0 491#0000000000000000
(1789484255.221290) can0 33B#0000004000000000
(1789484255.221507) can0 323#0000000000000000
(1789484255.221745) can0 324#0000003F3F000000
(1789484255.221989) can0 33D#0000102000280000
(1789484255.222228) can0 3B7#0000400000024200
(1789484255.222490) can0 491#0000000000000000
