(1789545357.141316) can0 3A2#0000004403FF00B8
(1789545357.141536) can0 39F#3E0000B800000187
(1789545357.141781) can0 3A4#0000000000000000
(1789545357.241395) can0 3A2#0000004803FF00B4
(1789545357.241532) can0 39F#3E0300B800000287
(1789545357.241773) can0 3A4#0000000000000000
(1789545357.341313) can0 3A2#0000004C03FF00B0
(1789545357.341520) can0 39F#3E0400B800000381
(1789545357.341771) can0 3A4#0000000000000000
(1789545357.441313) can0 3A2#0000005003FF00AC
(1789545357.441526) can0 39F#3E0500B800000487
(1789545357.441771) can0 3A4#0000000000000000
(1789545357.541363) can0 3A2#0000005403FF00A8
(1789545357.541566) can0 39F#3E0500B800000586
(1789545357.541835) can0 3A4#0000000000000000
(1789545357.641248) can0 3A2#0000005803FF00A4
(1789545357.641463) can0 39F#3E0500B800000685
(1789545357.641702) can0 3A4#0000000000000000
(1789545357.741224) can0 3A2#0000005C03FF00A0
(1789545357.741426) can0 39F#3E0500B800000784
(1789545357.741684) can0 3A4#0000000000000000
(1789545357.841227) can0 3A2#0000006003FF009C
(1789545357.841431) can0 39F#3E0500B80000088B
(1789545357.841731) can0 3A4#0000000000000000
(1789545357.941237) can0 3A2#0000006403FF0098
(1789545357.941449) can0 39F#3E0500B80000098A
(1789545357.941697) can0 3A4#0000000000000000
(1789545358.041294) can0 3A2#0000006803FF0094
(1789545358.041488) can0 39F#3E0500B800000A89
(1789545358.041731) can0 3A4#0000000000000000
(1789545358.041960) can0 70E#2FFF1D65012F02
(1789545358.141237) can0 3A2#0000006C03FF0090
(1789545358.141451) can0 39F#3E0500B800000B88
(1789545358.141707) can0 3A4#0000000000000000
(1789545358.241243) can0 3A2#0000007003FF008C
(1789545358.241464) can0 39F#3E0500B800000C8F
(1789545358.241704) can0 3A4#0000000000000000
(1789545358.341253) can0 3A2#0000007403FF0088
(1789545358.341458) can0 39F#3E0500B800000D8E
(1789545358.341714) can0 3A4#0000000000000000
(1789545358.441290) can0 3A2#0000007803FF0084
(1789545358.441513) can0 39F#3E0500B800000E8D
(1789545358.441763) can0 3A4#0000000000000000
(1789545358.541388) can0 3A2#0000007C03FF0080
(1789545358.541593) can0 39F#3E0500B800000F8C
(1789545358.541860) can0 3A4#0000000000000000
(1789545358.641361) can0 3A2#0000004003FF00BC
(1789545358.641557) can0 39F#3E0500B800000083
(1789545358.641810) can0 3A4#0000000000000000
(1789545358.741241) can0 3A2#0000004403FF00B8
(1789545358.741486) can0 39F#3E0500B800000182
(1789545358.741734) can0 3A4#0000000000000000
(1789545358.841366) can0 3A2#0000004803FF00B4
(1789545358.841590) can0 39F#3E0500B800000281
(1789545358.841836) can0 3A4#0000000000000000
(1789545358.941288) can0 3A2#0000004C03FF00B0
(1789545358.941478) can0 39F#3E0500B800000380
(1789545358.941723) can0 3A4#0000000000000000
(1789545359.041524) can0 3A2#0000005003FF00AC
(1789545359.041722) can0 39F#3E0500B800000487
(1789545359.041991) can0 3A4#0000000000000000
(1789545359.042264) can0 70E#4FFF1D831C2F05
(1789545359.141307) can0 3A2#0000005403FF00A8
(1789545359.141487) can0 39F#3E0500B800000586
(1789545359.141730) can0 3A4#0000000000000000
(1789545359.241320) can0 3A2#0000005803FF00A4
(1789545359.241489) can0 39F#3E0500B800000685
(1789545359.241737) can0 3A4#0000000000000000
(1789545359.341422) can0 3A2#0000005C03FF00A0
(1789545359.341542) can0 39F#3E0500B800000784
(1789545359.341787) can0 3A4#0000000000000000
(1789545359.441390) can0 3A2#0000006003FF009C
(1789545359.441589) can0 39F#3E0500B80000088B
(1789545359.441860) can0 3A4#0000000000000000
(1789545359.541428) can0 3A2#0000006403FF0098
(1789545359.541641) can0 39F#3E0500B80000098A
(1789545359.541882) can0 3A4#0000000000000000
(1789545359.641282) can0 3A2#0000006803FF0094
(1789545359.641504) can0 39F#3E0500B800000A89
(1789545359.641750) can0 3A4#0000000000000000
(1789545359.741387) can0 3A2#0000006C03FF0090
(1789545359.741612) can0 39F#3E0500B800000B88
(1789545359.741845) can0 3A4#0000000000000000
(1789545359.841300) can0 3A2#0000007003FF008C
(1789545359.841512) can0 39F#3E0500B800000C8F
(1789545359.841759) can0 3A4#0000000000000000
(1789545359.941303) can0 3A2#0000007403FF0088
(1789545359.941515) can0 39F#3E0500B800000D8E
(1789545359.941771) can0 3A4#0000000000000000
(1789545360.041365) can0 3A2#0000007803FF0084
(1789545360.041565) can0 39F#3E0500B800000E8D
(1789545360.041815) can0 3A4#0000000000000000
(1789545360.042025) can0 70E#2FFF1FAD002F03
(1789545360.141368) can0 3A2#000028BC03FF0068
(1789545360.141614) can0 39F#3E0500B800002FAC
(1789545360.141845) can0 3A4#0000000000000000
(1789545360.241319) can0 3A2#0000288003FF0054
(1789545360.241519) can0 39F#3E0500B8000020A3
(1789545360.241783) can0 3A4#0000000000000000
(1789545360.341472) can0 3A2#0000288403FF0050
(1789545360.341607) can0 39F#3E0500B8000021A2
(1789545360.341878) can0 3A4#0000000000000000
(1789545360.441404) can0 3A2#0000288803FF005C
(1789545360.441619) can0 39F#3E0500B8000022A1
(1789545360.441876) can0 3A4#0000000000000000
(1789545360.541501) can0 3A2#0000288C03FF0058
(1789545360.541636) can0 39F#3E0500B8000023A0
(1789545360.541879) can0 3A4#0000000000000000
(1789545360.641393) can0 3A2#0000289003FF0044
(1789545360.641620) can0 39F#3E0500B8000024A7
(1789545360.641857) can0 3A4#0000000000000000
(1789545360.741418) can0 3A2#0000289403FF0040
(1789545360.741638) can0 39F#3E0500B8000025A6
(1789545360.741881) can0 3A4#0000000000000000
(1789545360.841414) can0 3A2#0000289803FF004C
(1789545360.841642) can0 39F#3E0500B8000026A5
(1789545360.841884) can0 3A4#0000000000000000
(1789545360.941427) can0 3A2#0000289C03FF0048
(1789545360.941657) can0 39F#3E0500B8000027A4
(1789545360.941888) can0 3A4#0000000000000000
(1789545361.041580) can0 3A2#000028A003FF0074
(1789545361.041813) can0 39F#3E0500B8000028AB
(1789545361.042054) can0 3A4#0000000000000000
(1789545361.042267) can0 70E#2FFF1FAD002F03
(1789545361.141400) can0 3A2#000028A403FF0070
(1789545361.141609) can0 39F#3E0500B8000029AA
(1789545361.141860) can0 3A4#0000000000000000
(1789545361.241453) can0 3A2#000028A803FF007C
(1789545361.241666) can0 39F#3E0500B800002AA9
(1789545361.241909) can0 3A4#0000000000000000
(1789545361.341409) can0 3A2#000028AC03FF0078
(1789545361.341626) can0 39F#3E0500B800002BA8
(1789545361.341869) can0 3A4#0000000000000000
(1789545361.441352) can0 3A2#000028B003FF0064
(1789545361.441597) can0 39F#3E0500B800002CAF
(1789545361.441818) can0 3A4#0000000000000000
(1789545361.541402) can0 3A2#000028B403FF0060
(1789545361.541624) can0 39F#3E0500B800002DAE
(1789545361.541859) can0 3A4#0000000000000000
(1789545361.641353) can0 3A2#000028B803FF006C
(1789545361.641632) can0 39F#3E0500B800002EAD
(1789545361.641818) can0 3A4#0000000000000000
(1789545361.741330) can0 3A2#000028BC03FF0068
(1789545361.741637) can0 39F#3E0500B800002FAC
(1789545361.741830) can0 3A4#0000000000000000
(1789545361.841366) can0 3A2#0000288003FF0054
(1789545361.841563) can0 39F#3E0500B8000020A3
(1789545361.841809) can0 3A4#0000000000000000
(1789545361.941359) can0 3A2#0000288403FF0050
(1789545361.941579) can0 39F#3E0500B8000021A2
(1789545361.941839) can0 3A4#0000000000000000
(1789545362.041405) can0 3A2#0000288803FF005C
(1789545362.041670) can0 39F#3E0500B8000022A1
(1789545362.041873) can0 3A4#0000000000000000
(1789545362.141462) can0 3A2#0000288C03FF0058
(1789545362.141686) can0 39F#3E0500B8000023A0
(1789545362.141931) can0 3A4#0000000000000000
(1789545362.241374) can0 3A2#0000289003FF0044
(1789545362.241574) can0 39F#3E0500B8000024A7
(1789545362.241829) can0 3A4#0000000000000000
(1789545362.341366) can0 3A2#0000289403FF0040
(1789545362.341588) can0 39F#3E0500B8000025A6
(1789545362.341842) can0 3A4#0000000000000000
(1789545362.441379) can0 3A2#0000289803FF004C
(1789545362.441572) can0 39F#3E0500B8000026A5
(1789545362.441832) can0 3A4#0000000000000000
(1789545362.541520) can0 3A2#0000289C03FF0048
(1789545362.541739) can0 39F#3E0500B8000027A4
(1789545362.541987) can0 3A4#0000000000000000
(1789545362.641472) can0 3A2#000028A003FF0074
(1789545362.641751) can0 39F#3E0500B8000028AB
(1789545362.641945) can0 3A4#0000000000000000
(1789545362.741422) can0 3A2#000028A403FF0070
(1789545362.741649) can0 39F#3E0500B8000029AA
(1789545362.741899) can0 3A4#0000000000000000
(1789545362.841450) can0 3A2#000028A803FF007C
(1789545362.841682) can0 39F#3E0500B800002AA9
(1789545362.841932) can0 3A4#0000000000000000
(1789545362.941496) can0 3A2#000028AC03FF0078
(1789545362.941707) can0 39F#3E0500B800002BA8
(1789545362.941964) can0 3A4#0000000000000000
(1789545363.041661) can0 3A2#000028B003FF0064
(1789545363.041868) can0 39F#3E0500B800002CAF
(1789545363.042111) can0 3A4#0000000000000000
(1789545363.141456) can0 3A2#000028B403FF0060
(1789545363.141679) can0 39F#3E0500B800002DAE
(1789545363.141915) can0 3A4#0000000000000000
(1789545363.241505) can0 3A2#000028B803FF006C
(1789545363.241717) can0 39F#3E0500B800002EAD
(1789545363.241974) can0 3A4#0000000000000000
(1789545363.341501) can0 3A2#000028BC03FF0068
(1789545363.341705) can0 39F#3E0500B800002FAC
(1789545363.341968) can0 3A4#0000000000000000
(1789545363.441514) can0 3A2#0000288003FF0054
(1789545363.441715) can0 39F#3E0500B8000020A3
(1789545363.441964) can0 3A4#0000000000000000
(1789545363.541479) can0 3A2#0000288403FF0050
(1789545363.541683) can0 39F#3E0500B8000021A2
(1789545363.541938) can0 3A4#0000000000000000
(1789545363.641534) can0 3A2#0000288803FF005C
(1789545363.641742) can0 39F#3E0500B8000022A1
(1789545363.641983) can0 3A4#0000000000000000
(1789545363.741428) can0 3A2#0000288C03FF0058
(1789545363.741631) can0 39F#3E0500B8000023A0
(1789545363.741898) can0 3A4#0000000000000000
(1789545363.841420) can0 3A2#0000289003FF0044
(1789545363.841647) can0 39F#3E0500B8000024A7
(1789545363.841912) can0 3A4#0000000000000000
(1789545363.941492) can0 3A2#0000289403FF0040
(1789545363.941710) can0 39F#3E0500B8000025A6
(1789545363.941958) can0 3A4#0000000000000000
(1789545364.041606) can0 3A2#0000289803FF004C
(1789545364.041787) can0 39F#3E0500B8000026A5
(1789545364.042035) can0 3A4#0000000000000000
(1789545364.141421) can0 3A2#0000289C03FF0048
(1789545364.141650) can0 39F#3E0500B8000027A4
(1789545364.141950) can0 3A4#0000000000000000
(1789545364.241536) can0 3A2#000028A003FF0074
(1789545364.241737) can0 39F#3E0500B8000028AB
(1789545364.242003) can0 3A4#0000000000000000
(1789545364.341487) can0 3A2#000028A403FF0070
(1789545364.341712) can0 39F#3E0500B8000029AA
(1789545364.341980) can0 3A4#0000000000000000
(1789545364.441599) can0 3A2#000028A803FF007C
(1789545364.441761) can0 39F#3E0500B800002AA9
(1789545364.442002) can0 3A4#0000000000000000
(1789545364.541597) can0 3A2#000028AC03FF0078
(1789545364.541806) can0 39F#3E0500B800002BA8
(1789545364.542055) can0 3A4#0000000000000000
(1789545364.641465) can0 3A2#000028B003FF0064
(1789545364.641689) can0 39F#3E0500B800002CAF
(1789545364.641932) can0 3A4#0000000000000000
(1789545364.741550) can0 3A2#000028B403FF0060
(1789545364.741768) can0 39F#3E0500B800002DAE
(1789545364.742034) can0 3A4#0000000000000000
(1789545364.841456) can0 3A2#000028B803FF006C
(1789545364.841684) can0 39F#3E0500B800002EAD
(1789545364.841933) can0 3A4#0000000000000000
(1789545364.941532) can0 3A2#000028BC03FF0068
(1789545364.941737) can0 39F#3E0500B800002FAC
(1789545364.941986) can0 3A4#0000000000000000
(1789545365.041714) can0 3A2#0000288003FF0054
(1789545365.041935) can0 39F#3E0500B8000020A3
(1789545365.042197) can0 3A4#0000000000000000
(1789545365.141471) can0 3A2#0000288403FF0050
(1789545365.141686) can0 39F#3E0500B8000021A2
(1789545365.141933) can0 3A4#0000000000000000
(1789545365.241526) can0 3A2#0000288803FF005C
(1789545365.241736) can0 39F#3E0500B8000022A1
(1789545365.241997) can0 3A4#0000000000000000
(1789545365.341566) can0 3A2#0000288C03FF0058
(1789545365.341790) can0 39F#3E0500B8000023A0
(1789545365.342023) can0 3A4#0000000000000000
(1789545365.441469) can0 3A2#0000289003FF0044
(1789545365.441689) can0 39F#3E0500B8000024A7
(1789545365.441937) can0 3A4#0000000000000000
(1789545365.541543) can0 3A2#0000289403FF0040
(1789545365.541756) can0 39F#3E0500B8000025A6
(1789545365.542001) can0 3A4#0000000000000000
(1789545365.641475) can0 3A2#0000289803FF004C
(1789545365.641720) can0 39F#3E0500B8000026A5
(1789545365.641924) can0 3A4#0000000000000000
(1789545365.741547) can0 3A2#0000289C03FF0048
(1789545365.741750) can0 39F#3E0500B8000027A4
(1789545365.742018) can0 3A4#0000000000000000
(1789545365.841490) can0 3A2#000028A003FF0074
(1789545365.841694) can0 39F#3E0500B8000028AB
(1789545365.841942) can0 3A4#0000000000000000
(1789545365.941487) can0 3A2#000028A403FF0070
(1789545365.941709) can0 39F#3E0500B8000029AA
(1789545365.941956) can0 3A4#0000000000000000
(1789545366.041645) can0 3A2#000028A803FF007C
(1789545366.041860) can0 39F#3E0500B800002AA9
(1789545366.042099) can0 3A4#0000000000000000
(1789545366.141532) can0 3A2#000028AC03FF0078
(1789545366.141733) can0 39F#3E0500B800002BA8
(1789545366.141975) can0 3A4#0000000000000000
(1789545366.241598) can0 3A2#000028B003FF0064
(1789545366.241799) can0 39F#3E0500B800002CAF
(1789545366.242064) can0 3A4#0000000000000000
(1789545366.341519) can0 3A2#000028B403FF0060
(1789545366.341729) can0 39F#3E0500B800002DAE
(1789545366.341976) can0 3A4#0000000000000000
(1789545366.441576) can0 3A2#000028B803FF006C
(1789545366.441805) can0 39F#3E0500B800002EAD
(1789545366.442053) can0 3A4#0000000000000000
(1789545366.541653) can0 3A2#000028BC03FF0068
(1789545366.541875) can0 39F#3E0500B800002FAC
(1789545366.542123) can0 3A4#0000000000000000
(1789545366.641578) can0 3A2#0000288003FF0054
(1789545366.641802) can0 39F#3E0500B8000020A3
(1789545366.642048) can0 3A4#0000000000000000
(1789545366.741570) can0 3A2#0000288403FF0050
(1789545366.741778) can0 39F#3E0500B8000021A2
(1789545366.742035) can0 3A4#0000000000000000
(1789545366.841514) can0 3A2#0000288803FF005C
(1789545366.841721) can0 39F#3E0500B8000022A1
(1789545366.841969) can0 3A4#0000000000000000
(1789545366.941516) can0 3A2#0000288C03FF0058
(1789545366.941738) can0 39F#3E0500B8000023A0
(1789545366.941986) can0 3A4#0000000000000000
(1789545367.041764) can0 3A2#0000289003FF0044
(1789545367.041993) can0 39F#3E0500B8000024A7
(1789545367.042239) can0 3A4#0000000000000000
(1789545367.141534) can0 3A2#0000289403FF0040
(1789545367.141746) can0 39F#3E0500B8000025A6
(1789545367.141994) can0 3A4#0000000000000000
(1789545367.241593) can0 3A2#0000289803FF004C
(1789545367.241848) can0 39F#3E0500B8000026A5
(1789545367.242058) can0 3A4#0000000000000000
(1789545367.341548) can0 3A2#0000289C03FF0048
(1789545367.341743) can0 39F#3E0500B8000027A4
(1789545367.341991) can0 3A4#0000000000000000
(1789545367.441640) can0 3A2#000028A003FF0074
(1789545367.441851) can0 39F#3E0500B8000028AB
(1789545367.442119) can0 3A4#0000000000000000
(1789545367.541696) can0 3A2#000028A403FF0070
(1789545367.541920) can0 39F#3E0500B8000029AA
(1789545367.542165) can0 3A4#0000000000000000
(1789545367.641635) can0 3A2#000028A803FF007C
(1789545367.641865) can0 39F#3E0500B800002AA9
(1789545367.642103) can0 3A4#0000000000000000
(1789545367.741556) can0 3A2#000028AC03FF0078
(1789545367.741757) can0 39F#3E0500B800002BA8
(1789545367.742017) can0 3A4#0000000000000000
(1789545367.841633) can0 3A2#000028B003FF0064
(1789545367.841843) can0 39F#3E0500B800002CAF
(1789545367.842091) can0 3A4#0000000000000000
(1789545367.941655) can0 3A2#000028B403FF0060
(1789545367.941917) can0 39F#3E0500B800002DAE
(1789545367.942105) can0 3A4#0000000000000000
(1789545368.041609) can0 3A2#000028B803FF006C
(1789545368.041828) can0 39F#3E0500B800002EAD
(1789545368.042076) can0 3A4#0000000000000000
(1789545368.141632) can0 3A2#000028BC03FF0068
(1789545368.141846) can0 39F#3E0500B800002FAC
(1789545368.142102) can0 3A4#0000000000000000
(1789545368.241571) can0 3A2#0000288003FF0054
(1789545368.241784) can0 39F#3E0500B8000020A3
(1789545368.242028) can0 3A4#0000000000000000
(1789545368.341571) can0 3A2#0000288403FF0050
(1789545368.341773) can0 39F#3E0500B8000021A2
(1789545368.342021) can0 3A4#0000000000000000
(1789545368.441639) can0 3A2#0000288803FF005C
(1789545368.441844) can0 39F#3E0500B8000022A1
(1789545368.442090) can0 3A4#0000000000000000
(1789545368.541723) can0 3A2#0000288C03FF0058
(1789545368.541926) can0 39F#3E0500B8000023A0
(1789545368.542173) can0 3A4#0000000000000000
(1789545368.641636) can0 3A2#0000289003FF0044
(1789545368.641859) can0 39F#3E0500B8000024A7
(1789545368.642102) can0 3A4#0000000000000000
(1789545368.741605) can0 3A2#0000289403FF0040
(1789545368.741781) can0 39F#3E0500B8000025A6
(1789545368.742049) can0 3A4#0000000000000000
(1789545368.841625) can0 3A2#0000289803FF004C
(1789545368.841785) can0 39F#3E0500B8000026A5
(1789545368.842033) can0 3A4#0000000000000000
(1789545368.941648) can0 3A2#0000289C03FF0048
(1789545368.941870) can0 39F#3E0500B8000027A4
(1789545368.942101) can0 3A4#0000000000000000
(1789545369.041851) can0 3A2#000028A003FF0074
(1789545369.042062) can0 39F#3E0500B8000028AB
(1789545369.042314) can0 3A4#0000000000000000
(1789545369.141695) can0 3A2#000028A403FF0070
(1789545369.141907) can0 39F#3E0500B8000029AA
(1789545369.142151) can0 3A4#0000000000000000
(1789545369.241589) can0 3A2#000028A803FF007C
(1789545369.241799) can0 39F#3E0500B800002AA9
(1789545369.242067) can0 3A4#0000000000000000
(1789545369.341585) can0 3A2#000028AC03FF0078
(1789545369.341821) can0 39F#3E0500B800002BA8
(1789545369.342067) can0 3A4#0000000000000000
(1789545369.441692) can0 3A2#000028B003FF0064
(1789545369.441904) can0 39F#3E0500B800002CAF
(1789545369.442153) can0 3A4#0000000000000000
(1789545369.541775) can0 3A2#000028B403FF0060
(1789545369.541865) can0 39F#3E0500B800002DAE
(1789545369.542122) can0 3A4#0000000000000000
(1789545369.641724) can0 3A2#000028B803FF006C
(1789545369.641918) can0 39F#3E0500B800002EAD
(1789545369.642168) can0 3A4#0000000000000000
(1789545369.741733) can0 3A2#000028BC03FF0068
(1789545369.741921) can0 39F#3E0500B800002FAC
(1789545369.742164) can0 3A4#0000000000000000
(1789545369.841605) can0 3A2#0000288003FF0054
(1789545369.841847) can0 39F#3E0500B8000020A3
(1789545369.842081) can0 3A4#0000000000000000
(1789545369.941678) can0 3A2#0000288403FF0050
(1789545369.941884) can0 39F#3E0500B8000021A2
(1789545369.942138) can0 3A4#0000000000000000
(1789545370.041780) can0 3A2#0000288803FF005C
(1789545370.041986) can0 39F#3E0500B8000022A1
(1789545370.042236) can0 3A4#0000000000000000
(1789545370.141641) can0 3A2#0000288C03FF0058
(1789545370.141843) can0 39F#3E0500B8000023A0
(1789545370.142086) can0 3A4#0000000000000000
(1789545370.241704) can0 3A2#0000289003FF0044
(1789545370.241911) can0 39F#3E0500B8000024A7
(1789545370.242163) can0 3A4#0000000000000000
(1789545370.341628) can0 3A2#0000289403FF0040
(1789545370.341840) can0 39F#3E0500B8000025A6
(1789545370.342090) can0 3A4#0000000000000000
(1789545370.441676) can0 3A2#0000289803FF004C
(1789545370.441871) can0 39F#3E0500B8000026A5
(1789545370.442120) can0 3A4#0000000000000000
(1789545370.541772) can0 3A2#0000289C03FF0048
(1789545370.542004) can0 39F#3E0500B8000027A4
(1789545370.542250) can0 3A4#0000000000000000
(1789545370.641688) can0 3A2#000028A003FF0074
(1789545370.641928) can0 39F#3E0500B8000028AB
(1789545370.642177) can0 3A4#0000000000000000
(1789545370.741632) can0 3A2#000028A403FF0070
(1789545370.741863) can0 39F#3E0500B8000029AA
(1789545370.742101) can0 3A4#0000000000000000
(1789545370.841741) can0 3A2#000028A803FF007C
(1789545370.841958) can0 39F#3E0500B800002AA9
(1789545370.842216) can0 3A4#0000000000000000
(1789545370.941763) can0 3A2#000028AC03FF0078
(1789545370.941976) can0 39F#3E0500B800002BA8
(1789545370.942220) can0 3A4#0000000000000000
(1789545371.041925) can0 3A2#000028B003FF0064
(1789545371.042121) can0 39F#3E0500B800002CAF
(1789545371.042361) can0 3A4#0000000000000000
(1789545371.141757) can0 3A2#000028B403FF0060
(1789545371.141960) can0 39F#3E0500B800002DAE
(1789545371.142217) can0 3A4#0000000000000000
(1789545371.241675) can0 3A2#000028B803FF006C
(1789545371.241920) can0 39F#3E0500B800002EAD
(1789545371.242144) can0 3A4#0000000000000000
(1789545371.341772) can0 3A2#000028BC03FF0068
(1789545371.341981) can0 39F#3E0500B800002FAC
(1789545371.342218) can0 3A4#0000000000000000
(1789545371.441771) can0 3A2#0000288003FF0054
(1789545371.442009) can0 39F#3E0500B8000020A3
(1789545371.442240) can0 3A4#0000000000000000
(1789545371.541772) can0 3A2#0000288403FF0050
(1789545371.541992) can0 39F#3E0500B8000021A2
(1789545371.542239) can0 3A4#0000000000000000
(1789545371.641743) can0 3A2#0000288803FF005C
(1789545371.641965) can0 39F#3E0500B8000022A1
(1789545371.642191) can0 3A4#0000000000000000
(1789545371.741659) can0 3A2#0000288C03FF0058
(1789545371.741886) can0 39F#3E0500B8000023A0
(1789545371.742144) can0 3A4#0000000000000000
(1789545371.841672) can0 3A2#0000289003FF0044
(1789545371.841900) can0 39F#3E0500B8000024A7
(1789545371.842158) can0 3A4#0000000000000000
(1789545371.941776) can0 3A2#0000289403FF0040
(1789545371.942009) can0 39F#3E0500B8000025A6
(1789545371.942256) can0 3A4#0000000000000000
(1789545372.041801) can0 3A2#0000289803FF004C
(1789545372.042023) can0 39F#3E0500B8000026A5
(1789545372.042255) can0 3A4#0000000000000000
(1789545372.141784) can0 3A2#0000289C03FF0048
(1789545372.142049) can0 39F#3E0500B8000027A4
(1789545372.142257) can0 3A4#0000000000000000
(1789545372.241763) can0 3A2#000028A003FF0074
(1789545372.242054) can0 39F#3E0500B8000028AB
(1789545372.242224) can0 3A4#0000000000000000
(1789545372.341689) can0 3A2#000028A403FF0070
(1789545372.341919) can0 39F#3E0500B8000029AA
(1789545372.342170) can0 3A4#0000000000000000
(1789545372.441762) can0 3A2#000028A803FF007C
(1789545372.441980) can0 39F#3E0500B800002AA9
(1789545372.442238) can0 3A4#0000000000000000
(1789545372.541839) can0 3A2#000028AC03FF0078
(1789545372.542087) can0 39F#3E0500B800002BA8
(1789545372.542311) can0 3A4#0000000000000000
(1789545372.641753) can0 3A2#000028B003FF0064
(1789545372.641978) can0 39F#3E0500B800002CAF
(1789545372.642235) can0 3A4#0000000000000000
(1789545372.741704) can0 3A2#000028B403FF0060
(1789545372.741967) can0 39F#3E0500B800002DAE
(1789545372.742181) can0 3A4#0000000000000000
(1789545372.841709) can0 3A2#000028B803FF006C
(1789545372.841915) can0 39F#3E0500B800002EAD
(1789545372.842164) can0 3A4#0000000000000000
(1789545372.941811) can0 3A2#000028BC03FF0068
(1789545372.942028) can0 39F#3E0500B800002FAC
(1789545372.942278) can0 3A4#0000000000000000
(1789545373.042047) can0 3A2#0000288003FF0054
(1789545373.042245) can0 39F#3E0500B8000020A3
(1789545373.042503) can0 3A4#0000000000000000
(1789545373.141727) can0 3A2#0000288403FF0050
(1789545373.141933) can0 39F#3E0500B8000021A2
(1789545373.142178) can0 3A4#0000000000000000
(1789545373.241723) can0 3A2#0000288803FF005C
(1789545373.241937) can0 39F#3E0500B8000022A1
(1789545373.242182) can0 3A4#0000000000000000
(1789545373.341795) can0 3A2#0000288C03FF0058
(1789545373.342018) can0 39F#3E0500B8000023A0
(1789545373.342263) can0 3A4#0000000000000000
(1789545373.441832) can0 3A2#0000289003FF0044
(1789545373.442034) can0 39F#3E0500B8000024A7
(1789545373.442290) can0 3A4#0000000000000000
(1789545373.541772) can0 3A2#0000289403FF0040
(1789545373.541994) can0 39F#3E0500B8000025A6
(1789545373.542251) can0 3A4#0000000000000000
(1789545373.641834) can0 3A2#0000289803FF004C
(1789545373.642039) can0 39F#3E0500B8000026A5
(1789545373.642338) can0 3A4#0000000000000000
(1789545373.741748) can0 3A2#0000289C03FF0048
(1789545373.741961) can0 39F#3E0500B8000027A4
(1789545373.742249) can0 3A4#0000000000000000
(1789545373.841852) can0 3A2#000028A003FF0074
(1789545373.842051) can0 39F#3E0500B8000028AB
(1789545373.842300) can0 3A4#0000000000000000
(1789545373.941746) can0 3A2#000028A403FF0070
(1789545373.941962) can0 39F#3E0500B8000029AA
(1789545373.942274) can0 3A4#0000000000000000
(1789545374.041909) can0 3A2#000028A803FF007C
(1789545374.042119) can0 39F#3E0500B800002AA9
(1789545374.042361) can0 3A4#0000000000000000
(1789545374.141806) can0 3A2#000028AC03FF0078
(1789545374.142041) can0 39F#3E0500B800002BA8
(1789545374.142313) can0 3A4#0000000000000000
(1789545374.241754) can0 3A2#000028B003FF0064
(1789545374.241965) can0 39F#3E0500B800002CAF
(1789545374.242228) can0 3A4#0000000000000000
(1789545374.341807) can0 3A2#000028B403FF0060
(1789545374.342077) can0 39F#3E0500B800002DAE
(1789545374.342331) can0 3A4#0000000000000000
(1789545374.441756) can0 3A2#000028B803FF006C
(1789545374.441982) can0 39F#3E0500B800002EAD
(1789545374.442229) can0 3A4#0000000000000000
(1789545374.541908) can0 3A2#000028BC03FF0068
(1789545374.542129) can0 39F#3E0500B800002FAC
(1789545374.542375) can0 3A4#0000000000000000
(1789545374.641841) can0 3A2#0000288003FF0054
(1789545374.642008) can0 39F#3E0500B8000020A3
(1789545374.642256) can0 3A4#0000000000000000
(1789545374.741875) can0 3A2#0000288403FF0050
(1789545374.742078) can0 39F#3E0500B8000021A2
(1789545374.742382) can0 3A4#0000000000000000
(1789545374.841822) can0 3A2#0000288803FF005C
(1789545374.842033) can0 39F#3E0500B8000022A1
(1789545374.842283) can0 3A4#0000000000000000
(1789545374.941863) can0 3A2#0000288C03FF0058
(1789545374.942012) can0 39F#3E0500B8000023A0
(1789545374.942258) can0 3A4#0000000000000000
(1789545375.042108) can0 3A2#0000289003FF0044
(1789545375.042301) can0 39F#3E0500B8000024A7
